Time resolution is 1 ps
XilinxAXIVIP: Found at Path: tb_layernorm_axi_wrapper.u_lite_mst.inst
Xilinx AXI4STREAM VIP Found at Path: tb_layernorm_axi_wrapper.u_axis_mst.inst
Xilinx AXI4STREAM VIP Found at Path: tb_layernorm_axi_wrapper.u_axis_slv.inst
[DUT_FSM] t=5 ns ns  IDLE        (status=0)
[LITE WRITE] addr=0x08 data=0x0000000a resp=0
[LITE WRITE] addr=0x0c data=0x00000855 resp=0
[DUT_FSM] t=565 ns ns  ITER1       (status=9)
[LITE WRITE] addr=0x00 data=0x00000001 resp=0
Warning: [tx] (axi4stream_vip_pkg.axi4stream_transaction::set_id) 565 ns : Attempted to send ID (0x12345678) which is wider than id_width (         1). Truncating ID to (0x0)
Time: 565001 ps  Iteration: 0  Process: /axi4stream_vip_pkg/axi4stream_mst_driver(C_XIL_AXI4STREAM_SIGNAL_SET=8'b01110011,C_XIL_AXI4STREAM_DEST_WIDTH=1,C_XIL_AXI4STREAM_DATA_WIDTH=512,C_XIL_AXI4STREAM_ID_WIDTH=1,C_XIL_AXI4STREAM_HAS_ARESETN=1)::get_and_drive/GET_AND_DRIVE  Scope: axi4stream_vip_pkg.axi4stream_transaction::set_id  File: /home/linuxusr/tools/Vivado/2024.2/data/xilinx_vip/hdl/axi4stream_vip_pkg.sv Line: 495
Warning: [tx] (axi4stream_vip_pkg.axi4stream_transaction::set_dest) 565 ns : Attempted to send DEST (0xdeadbeef) which is wider than dest_width (         1). Truncating DEST to (0x1)
Time: 565001 ps  Iteration: 0  Process: /axi4stream_vip_pkg/axi4stream_mst_driver(C_XIL_AXI4STREAM_SIGNAL_SET=8'b01110011,C_XIL_AXI4STREAM_DEST_WIDTH=1,C_XIL_AXI4STREAM_DATA_WIDTH=512,C_XIL_AXI4STREAM_ID_WIDTH=1,C_XIL_AXI4STREAM_HAS_ARESETN=1)::get_and_drive/GET_AND_DRIVE  Scope: axi4stream_vip_pkg.axi4stream_transaction::set_dest  File: /home/linuxusr/tools/Vivado/2024.2/data/xilinx_vip/hdl/axi4stream_vip_pkg.sv Line: 528
Warning: [tx] (axi4stream_vip_pkg.axi4stream_transaction::set_id) 575 ns : Attempted to send ID (0x12345678) which is wider than id_width (         1). Truncating ID to (0x0)
Time: 575001 ps  Iteration: 0  Process: /axi4stream_vip_pkg/axi4stream_mst_driver(C_XIL_AXI4STREAM_SIGNAL_SET=8'b01110011,C_XIL_AXI4STREAM_DEST_WIDTH=1,C_XIL_AXI4STREAM_DATA_WIDTH=512,C_XIL_AXI4STREAM_ID_WIDTH=1,C_XIL_AXI4STREAM_HAS_ARESETN=1)::get_and_drive/GET_AND_DRIVE  Scope: axi4stream_vip_pkg.axi4stream_transaction::set_id  File: /home/linuxusr/tools/Vivado/2024.2/data/xilinx_vip/hdl/axi4stream_vip_pkg.sv Line: 495
Warning: [tx] (axi4stream_vip_pkg.axi4stream_transaction::set_dest) 575 ns : Attempted to send DEST (0xdeadbeef) which is wider than dest_width (         1). Truncating DEST to (0x1)
Time: 575001 ps  Iteration: 0  Process: /axi4stream_vip_pkg/axi4stream_mst_driver(C_XIL_AXI4STREAM_SIGNAL_SET=8'b01110011,C_XIL_AXI4STREAM_DEST_WIDTH=1,C_XIL_AXI4STREAM_DATA_WIDTH=512,C_XIL_AXI4STREAM_ID_WIDTH=1,C_XIL_AXI4STREAM_HAS_ARESETN=1)::get_and_drive/GET_AND_DRIVE  Scope: axi4stream_vip_pkg.axi4stream_transaction::set_dest  File: /home/linuxusr/tools/Vivado/2024.2/data/xilinx_vip/hdl/axi4stream_vip_pkg.sv Line: 528
Warning: [tx] (axi4stream_vip_pkg.axi4stream_transaction::set_id) 585 ns : Attempted to send ID (0x12345678) which is wider than id_width (         1). Truncating ID to (0x0)
Time: 585001 ps  Iteration: 0  Process: /axi4stream_vip_pkg/axi4stream_mst_driver(C_XIL_AXI4STREAM_SIGNAL_SET=8'b01110011,C_XIL_AXI4STREAM_DEST_WIDTH=1,C_XIL_AXI4STREAM_DATA_WIDTH=512,C_XIL_AXI4STREAM_ID_WIDTH=1,C_XIL_AXI4STREAM_HAS_ARESETN=1)::get_and_drive/GET_AND_DRIVE  Scope: axi4stream_vip_pkg.axi4stream_transaction::set_id  File: /home/linuxusr/tools/Vivado/2024.2/data/xilinx_vip/hdl/axi4stream_vip_pkg.sv Line: 495
Warning: [tx] (axi4stream_vip_pkg.axi4stream_transaction::set_dest) 585 ns : Attempted to send DEST (0xdeadbeef) which is wider than dest_width (         1). Truncating DEST to (0x1)
Time: 585001 ps  Iteration: 0  Process: /axi4stream_vip_pkg/axi4stream_mst_driver(C_XIL_AXI4STREAM_SIGNAL_SET=8'b01110011,C_XIL_AXI4STREAM_DEST_WIDTH=1,C_XIL_AXI4STREAM_DATA_WIDTH=512,C_XIL_AXI4STREAM_ID_WIDTH=1,C_XIL_AXI4STREAM_HAS_ARESETN=1)::get_and_drive/GET_AND_DRIVE  Scope: axi4stream_vip_pkg.axi4stream_transaction::set_dest  File: /home/linuxusr/tools/Vivado/2024.2/data/xilinx_vip/hdl/axi4stream_vip_pkg.sv Line: 528
Warning: [tx] (axi4stream_vip_pkg.axi4stream_transaction::set_id) 595 ns : Attempted to send ID (0x12345678) which is wider than id_width (         1). Truncating ID to (0x0)
Time: 595001 ps  Iteration: 0  Process: /axi4stream_vip_pkg/axi4stream_mst_driver(C_XIL_AXI4STREAM_SIGNAL_SET=8'b01110011,C_XIL_AXI4STREAM_DEST_WIDTH=1,C_XIL_AXI4STREAM_DATA_WIDTH=512,C_XIL_AXI4STREAM_ID_WIDTH=1,C_XIL_AXI4STREAM_HAS_ARESETN=1)::get_and_drive/GET_AND_DRIVE  Scope: axi4stream_vip_pkg.axi4stream_transaction::set_id  File: /home/linuxusr/tools/Vivado/2024.2/data/xilinx_vip/hdl/axi4stream_vip_pkg.sv Line: 495
Warning: [tx] (axi4stream_vip_pkg.axi4stream_transaction::set_dest) 595 ns : Attempted to send DEST (0xdeadbeef) which is wider than dest_width (         1). Truncating DEST to (0x1)
Time: 595001 ps  Iteration: 0  Process: /axi4stream_vip_pkg/axi4stream_mst_driver(C_XIL_AXI4STREAM_SIGNAL_SET=8'b01110011,C_XIL_AXI4STREAM_DEST_WIDTH=1,C_XIL_AXI4STREAM_DATA_WIDTH=512,C_XIL_AXI4STREAM_ID_WIDTH=1,C_XIL_AXI4STREAM_HAS_ARESETN=1)::get_and_drive/GET_AND_DRIVE  Scope: axi4stream_vip_pkg.axi4stream_transaction::set_dest  File: /home/linuxusr/tools/Vivado/2024.2/data/xilinx_vip/hdl/axi4stream_vip_pkg.sv Line: 528
Warning: [tx] (axi4stream_vip_pkg.axi4stream_transaction::set_id) 605 ns : Attempted to send ID (0x12345678) which is wider than id_width (         1). Truncating ID to (0x0)
Time: 605001 ps  Iteration: 0  Process: /axi4stream_vip_pkg/axi4stream_mst_driver(C_XIL_AXI4STREAM_SIGNAL_SET=8'b01110011,C_XIL_AXI4STREAM_DEST_WIDTH=1,C_XIL_AXI4STREAM_DATA_WIDTH=512,C_XIL_AXI4STREAM_ID_WIDTH=1,C_XIL_AXI4STREAM_HAS_ARESETN=1)::get_and_drive/GET_AND_DRIVE  Scope: axi4stream_vip_pkg.axi4stream_transaction::set_id  File: /home/linuxusr/tools/Vivado/2024.2/data/xilinx_vip/hdl/axi4stream_vip_pkg.sv Line: 495
Warning: [tx] (axi4stream_vip_pkg.axi4stream_transaction::set_dest) 605 ns : Attempted to send DEST (0xdeadbeef) which is wider than dest_width (         1). Truncating DEST to (0x1)
Time: 605001 ps  Iteration: 0  Process: /axi4stream_vip_pkg/axi4stream_mst_driver(C_XIL_AXI4STREAM_SIGNAL_SET=8'b01110011,C_XIL_AXI4STREAM_DEST_WIDTH=1,C_XIL_AXI4STREAM_DATA_WIDTH=512,C_XIL_AXI4STREAM_ID_WIDTH=1,C_XIL_AXI4STREAM_HAS_ARESETN=1)::get_and_drive/GET_AND_DRIVE  Scope: axi4stream_vip_pkg.axi4stream_transaction::set_dest  File: /home/linuxusr/tools/Vivado/2024.2/data/xilinx_vip/hdl/axi4stream_vip_pkg.sv Line: 528
Warning: [tx] (axi4stream_vip_pkg.axi4stream_transaction::set_id) 615 ns : Attempted to send ID (0x12345678) which is wider than id_width (         1). Truncating ID to (0x0)
Time: 615001 ps  Iteration: 0  Process: /axi4stream_vip_pkg/axi4stream_mst_driver(C_XIL_AXI4STREAM_SIGNAL_SET=8'b01110011,C_XIL_AXI4STREAM_DEST_WIDTH=1,C_XIL_AXI4STREAM_DATA_WIDTH=512,C_XIL_AXI4STREAM_ID_WIDTH=1,C_XIL_AXI4STREAM_HAS_ARESETN=1)::get_and_drive/GET_AND_DRIVE  Scope: axi4stream_vip_pkg.axi4stream_transaction::set_id  File: /home/linuxusr/tools/Vivado/2024.2/data/xilinx_vip/hdl/axi4stream_vip_pkg.sv Line: 495
Warning: [tx] (axi4stream_vip_pkg.axi4stream_transaction::set_dest) 615 ns : Attempted to send DEST (0xdeadbeef) which is wider than dest_width (         1). Truncating DEST to (0x1)
Time: 615001 ps  Iteration: 0  Process: /axi4stream_vip_pkg/axi4stream_mst_driver(C_XIL_AXI4STREAM_SIGNAL_SET=8'b01110011,C_XIL_AXI4STREAM_DEST_WIDTH=1,C_XIL_AXI4STREAM_DATA_WIDTH=512,C_XIL_AXI4STREAM_ID_WIDTH=1,C_XIL_AXI4STREAM_HAS_ARESETN=1)::get_and_drive/GET_AND_DRIVE  Scope: axi4stream_vip_pkg.axi4stream_transaction::set_dest  File: /home/linuxusr/tools/Vivado/2024.2/data/xilinx_vip/hdl/axi4stream_vip_pkg.sv Line: 528
Warning: [tx] (axi4stream_vip_pkg.axi4stream_transaction::set_id) 625 ns : Attempted to send ID (0x12345678) which is wider than id_width (         1). Truncating ID to (0x0)
Time: 625001 ps  Iteration: 0  Process: /axi4stream_vip_pkg/axi4stream_mst_driver(C_XIL_AXI4STREAM_SIGNAL_SET=8'b01110011,C_XIL_AXI4STREAM_DEST_WIDTH=1,C_XIL_AXI4STREAM_DATA_WIDTH=512,C_XIL_AXI4STREAM_ID_WIDTH=1,C_XIL_AXI4STREAM_HAS_ARESETN=1)::get_and_drive/GET_AND_DRIVE  Scope: axi4stream_vip_pkg.axi4stream_transaction::set_id  File: /home/linuxusr/tools/Vivado/2024.2/data/xilinx_vip/hdl/axi4stream_vip_pkg.sv Line: 495
Warning: [tx] (axi4stream_vip_pkg.axi4stream_transaction::set_dest) 625 ns : Attempted to send DEST (0xdeadbeef) which is wider than dest_width (         1). Truncating DEST to (0x1)
Time: 625001 ps  Iteration: 0  Process: /axi4stream_vip_pkg/axi4stream_mst_driver(C_XIL_AXI4STREAM_SIGNAL_SET=8'b01110011,C_XIL_AXI4STREAM_DEST_WIDTH=1,C_XIL_AXI4STREAM_DATA_WIDTH=512,C_XIL_AXI4STREAM_ID_WIDTH=1,C_XIL_AXI4STREAM_HAS_ARESETN=1)::get_and_drive/GET_AND_DRIVE  Scope: axi4stream_vip_pkg.axi4stream_transaction::set_dest  File: /home/linuxusr/tools/Vivado/2024.2/data/xilinx_vip/hdl/axi4stream_vip_pkg.sv Line: 528
Warning: [tx] (axi4stream_vip_pkg.axi4stream_transaction::set_id) 635 ns : Attempted to send ID (0x12345678) which is wider than id_width (         1). Truncating ID to (0x0)
Time: 635001 ps  Iteration: 0  Process: /axi4stream_vip_pkg/axi4stream_mst_driver(C_XIL_AXI4STREAM_SIGNAL_SET=8'b01110011,C_XIL_AXI4STREAM_DEST_WIDTH=1,C_XIL_AXI4STREAM_DATA_WIDTH=512,C_XIL_AXI4STREAM_ID_WIDTH=1,C_XIL_AXI4STREAM_HAS_ARESETN=1)::get_and_drive/GET_AND_DRIVE  Scope: axi4stream_vip_pkg.axi4stream_transaction::set_id  File: /home/linuxusr/tools/Vivado/2024.2/data/xilinx_vip/hdl/axi4stream_vip_pkg.sv Line: 495
Warning: [tx] (axi4stream_vip_pkg.axi4stream_transaction::set_dest) 635 ns : Attempted to send DEST (0xdeadbeef) which is wider than dest_width (         1). Truncating DEST to (0x1)
Time: 635001 ps  Iteration: 0  Process: /axi4stream_vip_pkg/axi4stream_mst_driver(C_XIL_AXI4STREAM_SIGNAL_SET=8'b01110011,C_XIL_AXI4STREAM_DEST_WIDTH=1,C_XIL_AXI4STREAM_DATA_WIDTH=512,C_XIL_AXI4STREAM_ID_WIDTH=1,C_XIL_AXI4STREAM_HAS_ARESETN=1)::get_and_drive/GET_AND_DRIVE  Scope: axi4stream_vip_pkg.axi4stream_transaction::set_dest  File: /home/linuxusr/tools/Vivado/2024.2/data/xilinx_vip/hdl/axi4stream_vip_pkg.sv Line: 528
Warning: [tx] (axi4stream_vip_pkg.axi4stream_transaction::set_id) 645 ns : Attempted to send ID (0x12345678) which is wider than id_width (         1). Truncating ID to (0x0)
Time: 645001 ps  Iteration: 0  Process: /axi4stream_vip_pkg/axi4stream_mst_driver(C_XIL_AXI4STREAM_SIGNAL_SET=8'b01110011,C_XIL_AXI4STREAM_DEST_WIDTH=1,C_XIL_AXI4STREAM_DATA_WIDTH=512,C_XIL_AXI4STREAM_ID_WIDTH=1,C_XIL_AXI4STREAM_HAS_ARESETN=1)::get_and_drive/GET_AND_DRIVE  Scope: axi4stream_vip_pkg.axi4stream_transaction::set_id  File: /home/linuxusr/tools/Vivado/2024.2/data/xilinx_vip/hdl/axi4stream_vip_pkg.sv Line: 495
Warning: [tx] (axi4stream_vip_pkg.axi4stream_transaction::set_dest) 645 ns : Attempted to send DEST (0xdeadbeef) which is wider than dest_width (         1). Truncating DEST to (0x1)
Time: 645001 ps  Iteration: 0  Process: /axi4stream_vip_pkg/axi4stream_mst_driver(C_XIL_AXI4STREAM_SIGNAL_SET=8'b01110011,C_XIL_AXI4STREAM_DEST_WIDTH=1,C_XIL_AXI4STREAM_DATA_WIDTH=512,C_XIL_AXI4STREAM_ID_WIDTH=1,C_XIL_AXI4STREAM_HAS_ARESETN=1)::get_and_drive/GET_AND_DRIVE  Scope: axi4stream_vip_pkg.axi4stream_transaction::set_dest  File: /home/linuxusr/tools/Vivado/2024.2/data/xilinx_vip/hdl/axi4stream_vip_pkg.sv Line: 528
Warning: [tx] (axi4stream_vip_pkg.axi4stream_transaction::set_id) 655 ns : Attempted to send ID (0x12345678) which is wider than id_width (         1). Truncating ID to (0x0)
Time: 655001 ps  Iteration: 0  Process: /axi4stream_vip_pkg/axi4stream_mst_driver(C_XIL_AXI4STREAM_SIGNAL_SET=8'b01110011,C_XIL_AXI4STREAM_DEST_WIDTH=1,C_XIL_AXI4STREAM_DATA_WIDTH=512,C_XIL_AXI4STREAM_ID_WIDTH=1,C_XIL_AXI4STREAM_HAS_ARESETN=1)::get_and_drive/GET_AND_DRIVE  Scope: axi4stream_vip_pkg.axi4stream_transaction::set_id  File: /home/linuxusr/tools/Vivado/2024.2/data/xilinx_vip/hdl/axi4stream_vip_pkg.sv Line: 495
Warning: [tx] (axi4stream_vip_pkg.axi4stream_transaction::set_dest) 655 ns : Attempted to send DEST (0xdeadbeef) which is wider than dest_width (         1). Truncating DEST to (0x1)
Time: 655001 ps  Iteration: 0  Process: /axi4stream_vip_pkg/axi4stream_mst_driver(C_XIL_AXI4STREAM_SIGNAL_SET=8'b01110011,C_XIL_AXI4STREAM_DEST_WIDTH=1,C_XIL_AXI4STREAM_DATA_WIDTH=512,C_XIL_AXI4STREAM_ID_WIDTH=1,C_XIL_AXI4STREAM_HAS_ARESETN=1)::get_and_drive/GET_AND_DRIVE  Scope: axi4stream_vip_pkg.axi4stream_transaction::set_dest  File: /home/linuxusr/tools/Vivado/2024.2/data/xilinx_vip/hdl/axi4stream_vip_pkg.sv Line: 528
[AXIS SEND] with continuous valid : all beats send 완료
[LITE READ]  addr=0x04 data=0x00000009
[LITE READ]  addr=0x04 data=0x00000009
[DUT_FSM] t=735 ns ns  STORE       (status=9)
[DUT_FSM] t=745 ns ns  WAIT_ITER2  (status=1)
[LITE READ]  addr=0x04 data=0x00000009
[LITE READ]  addr=0x04 data=0x00000001
>>> ITER1 완료,WAIT_ITER2 
[DUT_FSM] t=855 ns ns  ITER2       (status=2)
[LITE WRITE] addr=0x00 data=0x00000002 resp=0
Warning: [tx] (axi4stream_vip_pkg.axi4stream_transaction::set_id) 855 ns : Attempted to send ID (0x12345678) which is wider than id_width (         1). Truncating ID to (0x0)
Time: 855001 ps  Iteration: 0  Process: /axi4stream_vip_pkg/axi4stream_mst_driver(C_XIL_AXI4STREAM_SIGNAL_SET=8'b01110011,C_XIL_AXI4STREAM_DEST_WIDTH=1,C_XIL_AXI4STREAM_DATA_WIDTH=512,C_XIL_AXI4STREAM_ID_WIDTH=1,C_XIL_AXI4STREAM_HAS_ARESETN=1)::get_and_drive/GET_AND_DRIVE  Scope: axi4stream_vip_pkg.axi4stream_transaction::set_id  File: /home/linuxusr/tools/Vivado/2024.2/data/xilinx_vip/hdl/axi4stream_vip_pkg.sv Line: 495
Warning: [tx] (axi4stream_vip_pkg.axi4stream_transaction::set_dest) 855 ns : Attempted to send DEST (0xdeadbeef) which is wider than dest_width (         1). Truncating DEST to (0x1)
Time: 855001 ps  Iteration: 0  Process: /axi4stream_vip_pkg/axi4stream_mst_driver(C_XIL_AXI4STREAM_SIGNAL_SET=8'b01110011,C_XIL_AXI4STREAM_DEST_WIDTH=1,C_XIL_AXI4STREAM_DATA_WIDTH=512,C_XIL_AXI4STREAM_ID_WIDTH=1,C_XIL_AXI4STREAM_HAS_ARESETN=1)::get_and_drive/GET_AND_DRIVE  Scope: axi4stream_vip_pkg.axi4stream_transaction::set_dest  File: /home/linuxusr/tools/Vivado/2024.2/data/xilinx_vip/hdl/axi4stream_vip_pkg.sv Line: 528
Warning: [tx] (axi4stream_vip_pkg.axi4stream_transaction::set_id) 865 ns : Attempted to send ID (0x12345678) which is wider than id_width (         1). Truncating ID to (0x0)
Time: 865001 ps  Iteration: 0  Process: /axi4stream_vip_pkg/axi4stream_mst_driver(C_XIL_AXI4STREAM_SIGNAL_SET=8'b01110011,C_XIL_AXI4STREAM_DEST_WIDTH=1,C_XIL_AXI4STREAM_DATA_WIDTH=512,C_XIL_AXI4STREAM_ID_WIDTH=1,C_XIL_AXI4STREAM_HAS_ARESETN=1)::get_and_drive/GET_AND_DRIVE  Scope: axi4stream_vip_pkg.axi4stream_transaction::set_id  File: /home/linuxusr/tools/Vivado/2024.2/data/xilinx_vip/hdl/axi4stream_vip_pkg.sv Line: 495
Warning: [tx] (axi4stream_vip_pkg.axi4stream_transaction::set_dest) 865 ns : Attempted to send DEST (0xdeadbeef) which is wider than dest_width (         1). Truncating DEST to (0x1)
Time: 865001 ps  Iteration: 0  Process: /axi4stream_vip_pkg/axi4stream_mst_driver(C_XIL_AXI4STREAM_SIGNAL_SET=8'b01110011,C_XIL_AXI4STREAM_DEST_WIDTH=1,C_XIL_AXI4STREAM_DATA_WIDTH=512,C_XIL_AXI4STREAM_ID_WIDTH=1,C_XIL_AXI4STREAM_HAS_ARESETN=1)::get_and_drive/GET_AND_DRIVE  Scope: axi4stream_vip_pkg.axi4stream_transaction::set_dest  File: /home/linuxusr/tools/Vivado/2024.2/data/xilinx_vip/hdl/axi4stream_vip_pkg.sv Line: 528
[OUT] first row data[15:0] in 32row =0000 , tlast=0
Warning: [tx] (axi4stream_vip_pkg.axi4stream_transaction::set_id) 875 ns : Attempted to send ID (0x12345678) which is wider than id_width (         1). Truncating ID to (0x0)
Time: 875001 ps  Iteration: 0  Process: /axi4stream_vip_pkg/axi4stream_mst_driver(C_XIL_AXI4STREAM_SIGNAL_SET=8'b01110011,C_XIL_AXI4STREAM_DEST_WIDTH=1,C_XIL_AXI4STREAM_DATA_WIDTH=512,C_XIL_AXI4STREAM_ID_WIDTH=1,C_XIL_AXI4STREAM_HAS_ARESETN=1)::get_and_drive/GET_AND_DRIVE  Scope: axi4stream_vip_pkg.axi4stream_transaction::set_id  File: /home/linuxusr/tools/Vivado/2024.2/data/xilinx_vip/hdl/axi4stream_vip_pkg.sv Line: 495
Warning: [tx] (axi4stream_vip_pkg.axi4stream_transaction::set_dest) 875 ns : Attempted to send DEST (0xdeadbeef) which is wider than dest_width (         1). Truncating DEST to (0x1)
Time: 875001 ps  Iteration: 0  Process: /axi4stream_vip_pkg/axi4stream_mst_driver(C_XIL_AXI4STREAM_SIGNAL_SET=8'b01110011,C_XIL_AXI4STREAM_DEST_WIDTH=1,C_XIL_AXI4STREAM_DATA_WIDTH=512,C_XIL_AXI4STREAM_ID_WIDTH=1,C_XIL_AXI4STREAM_HAS_ARESETN=1)::get_and_drive/GET_AND_DRIVE  Scope: axi4stream_vip_pkg.axi4stream_transaction::set_dest  File: /home/linuxusr/tools/Vivado/2024.2/data/xilinx_vip/hdl/axi4stream_vip_pkg.sv Line: 528
Warning: [tx] (axi4stream_vip_pkg.axi4stream_transaction::set_id) 885 ns : Attempted to send ID (0x12345678) which is wider than id_width (         1). Truncating ID to (0x0)
Time: 885001 ps  Iteration: 0  Process: /axi4stream_vip_pkg/axi4stream_mst_driver(C_XIL_AXI4STREAM_SIGNAL_SET=8'b01110011,C_XIL_AXI4STREAM_DEST_WIDTH=1,C_XIL_AXI4STREAM_DATA_WIDTH=512,C_XIL_AXI4STREAM_ID_WIDTH=1,C_XIL_AXI4STREAM_HAS_ARESETN=1)::get_and_drive/GET_AND_DRIVE  Scope: axi4stream_vip_pkg.axi4stream_transaction::set_id  File: /home/linuxusr/tools/Vivado/2024.2/data/xilinx_vip/hdl/axi4stream_vip_pkg.sv Line: 495
Warning: [tx] (axi4stream_vip_pkg.axi4stream_transaction::set_dest) 885 ns : Attempted to send DEST (0xdeadbeef) which is wider than dest_width (         1). Truncating DEST to (0x1)
Time: 885001 ps  Iteration: 0  Process: /axi4stream_vip_pkg/axi4stream_mst_driver(C_XIL_AXI4STREAM_SIGNAL_SET=8'b01110011,C_XIL_AXI4STREAM_DEST_WIDTH=1,C_XIL_AXI4STREAM_DATA_WIDTH=512,C_XIL_AXI4STREAM_ID_WIDTH=1,C_XIL_AXI4STREAM_HAS_ARESETN=1)::get_and_drive/GET_AND_DRIVE  Scope: axi4stream_vip_pkg.axi4stream_transaction::set_dest  File: /home/linuxusr/tools/Vivado/2024.2/data/xilinx_vip/hdl/axi4stream_vip_pkg.sv Line: 528
Warning: [tx] (axi4stream_vip_pkg.axi4stream_transaction::set_id) 895 ns : Attempted to send ID (0x12345678) which is wider than id_width (         1). Truncating ID to (0x0)
Time: 895001 ps  Iteration: 0  Process: /axi4stream_vip_pkg/axi4stream_mst_driver(C_XIL_AXI4STREAM_SIGNAL_SET=8'b01110011,C_XIL_AXI4STREAM_DEST_WIDTH=1,C_XIL_AXI4STREAM_DATA_WIDTH=512,C_XIL_AXI4STREAM_ID_WIDTH=1,C_XIL_AXI4STREAM_HAS_ARESETN=1)::get_and_drive/GET_AND_DRIVE  Scope: axi4stream_vip_pkg.axi4stream_transaction::set_id  File: /home/linuxusr/tools/Vivado/2024.2/data/xilinx_vip/hdl/axi4stream_vip_pkg.sv Line: 495
Warning: [tx] (axi4stream_vip_pkg.axi4stream_transaction::set_dest) 895 ns : Attempted to send DEST (0xdeadbeef) which is wider than dest_width (         1). Truncating DEST to (0x1)
Time: 895001 ps  Iteration: 0  Process: /axi4stream_vip_pkg/axi4stream_mst_driver(C_XIL_AXI4STREAM_SIGNAL_SET=8'b01110011,C_XIL_AXI4STREAM_DEST_WIDTH=1,C_XIL_AXI4STREAM_DATA_WIDTH=512,C_XIL_AXI4STREAM_ID_WIDTH=1,C_XIL_AXI4STREAM_HAS_ARESETN=1)::get_and_drive/GET_AND_DRIVE  Scope: axi4stream_vip_pkg.axi4stream_transaction::set_dest  File: /home/linuxusr/tools/Vivado/2024.2/data/xilinx_vip/hdl/axi4stream_vip_pkg.sv Line: 528
[OUT] first row data[15:0] in 32row =0000 , tlast=0
Warning: [tx] (axi4stream_vip_pkg.axi4stream_transaction::set_id) 905 ns : Attempted to send ID (0x12345678) which is wider than id_width (         1). Truncating ID to (0x0)
Time: 905001 ps  Iteration: 0  Process: /axi4stream_vip_pkg/axi4stream_mst_driver(C_XIL_AXI4STREAM_SIGNAL_SET=8'b01110011,C_XIL_AXI4STREAM_DEST_WIDTH=1,C_XIL_AXI4STREAM_DATA_WIDTH=512,C_XIL_AXI4STREAM_ID_WIDTH=1,C_XIL_AXI4STREAM_HAS_ARESETN=1)::get_and_drive/GET_AND_DRIVE  Scope: axi4stream_vip_pkg.axi4stream_transaction::set_id  File: /home/linuxusr/tools/Vivado/2024.2/data/xilinx_vip/hdl/axi4stream_vip_pkg.sv Line: 495
Warning: [tx] (axi4stream_vip_pkg.axi4stream_transaction::set_dest) 905 ns : Attempted to send DEST (0xdeadbeef) which is wider than dest_width (         1). Truncating DEST to (0x1)
Time: 905001 ps  Iteration: 0  Process: /axi4stream_vip_pkg/axi4stream_mst_driver(C_XIL_AXI4STREAM_SIGNAL_SET=8'b01110011,C_XIL_AXI4STREAM_DEST_WIDTH=1,C_XIL_AXI4STREAM_DATA_WIDTH=512,C_XIL_AXI4STREAM_ID_WIDTH=1,C_XIL_AXI4STREAM_HAS_ARESETN=1)::get_and_drive/GET_AND_DRIVE  Scope: axi4stream_vip_pkg.axi4stream_transaction::set_dest  File: /home/linuxusr/tools/Vivado/2024.2/data/xilinx_vip/hdl/axi4stream_vip_pkg.sv Line: 528
Warning: [tx] (axi4stream_vip_pkg.axi4stream_transaction::set_id) 915 ns : Attempted to send ID (0x12345678) which is wider than id_width (         1). Truncating ID to (0x0)
Time: 915001 ps  Iteration: 0  Process: /axi4stream_vip_pkg/axi4stream_mst_driver(C_XIL_AXI4STREAM_SIGNAL_SET=8'b01110011,C_XIL_AXI4STREAM_DEST_WIDTH=1,C_XIL_AXI4STREAM_DATA_WIDTH=512,C_XIL_AXI4STREAM_ID_WIDTH=1,C_XIL_AXI4STREAM_HAS_ARESETN=1)::get_and_drive/GET_AND_DRIVE  Scope: axi4stream_vip_pkg.axi4stream_transaction::set_id  File: /home/linuxusr/tools/Vivado/2024.2/data/xilinx_vip/hdl/axi4stream_vip_pkg.sv Line: 495
Warning: [tx] (axi4stream_vip_pkg.axi4stream_transaction::set_dest) 915 ns : Attempted to send DEST (0xdeadbeef) which is wider than dest_width (         1). Truncating DEST to (0x1)
Time: 915001 ps  Iteration: 0  Process: /axi4stream_vip_pkg/axi4stream_mst_driver(C_XIL_AXI4STREAM_SIGNAL_SET=8'b01110011,C_XIL_AXI4STREAM_DEST_WIDTH=1,C_XIL_AXI4STREAM_DATA_WIDTH=512,C_XIL_AXI4STREAM_ID_WIDTH=1,C_XIL_AXI4STREAM_HAS_ARESETN=1)::get_and_drive/GET_AND_DRIVE  Scope: axi4stream_vip_pkg.axi4stream_transaction::set_dest  File: /home/linuxusr/tools/Vivado/2024.2/data/xilinx_vip/hdl/axi4stream_vip_pkg.sv Line: 528
Warning: [tx] (axi4stream_vip_pkg.axi4stream_transaction::set_id) 925 ns : Attempted to send ID (0x12345678) which is wider than id_width (         1). Truncating ID to (0x0)
Time: 925001 ps  Iteration: 0  Process: /axi4stream_vip_pkg/axi4stream_mst_driver(C_XIL_AXI4STREAM_SIGNAL_SET=8'b01110011,C_XIL_AXI4STREAM_DEST_WIDTH=1,C_XIL_AXI4STREAM_DATA_WIDTH=512,C_XIL_AXI4STREAM_ID_WIDTH=1,C_XIL_AXI4STREAM_HAS_ARESETN=1)::get_and_drive/GET_AND_DRIVE  Scope: axi4stream_vip_pkg.axi4stream_transaction::set_id  File: /home/linuxusr/tools/Vivado/2024.2/data/xilinx_vip/hdl/axi4stream_vip_pkg.sv Line: 495
Warning: [tx] (axi4stream_vip_pkg.axi4stream_transaction::set_dest) 925 ns : Attempted to send DEST (0xdeadbeef) which is wider than dest_width (         1). Truncating DEST to (0x1)
Time: 925001 ps  Iteration: 0  Process: /axi4stream_vip_pkg/axi4stream_mst_driver(C_XIL_AXI4STREAM_SIGNAL_SET=8'b01110011,C_XIL_AXI4STREAM_DEST_WIDTH=1,C_XIL_AXI4STREAM_DATA_WIDTH=512,C_XIL_AXI4STREAM_ID_WIDTH=1,C_XIL_AXI4STREAM_HAS_ARESETN=1)::get_and_drive/GET_AND_DRIVE  Scope: axi4stream_vip_pkg.axi4stream_transaction::set_dest  File: /home/linuxusr/tools/Vivado/2024.2/data/xilinx_vip/hdl/axi4stream_vip_pkg.sv Line: 528
[OUT] first row data[15:0] in 32row =0000 , tlast=0
Warning: [tx] (axi4stream_vip_pkg.axi4stream_transaction::set_id) 935 ns : Attempted to send ID (0x12345678) which is wider than id_width (         1). Truncating ID to (0x0)
Time: 935001 ps  Iteration: 0  Process: /axi4stream_vip_pkg/axi4stream_mst_driver(C_XIL_AXI4STREAM_SIGNAL_SET=8'b01110011,C_XIL_AXI4STREAM_DEST_WIDTH=1,C_XIL_AXI4STREAM_DATA_WIDTH=512,C_XIL_AXI4STREAM_ID_WIDTH=1,C_XIL_AXI4STREAM_HAS_ARESETN=1)::get_and_drive/GET_AND_DRIVE  Scope: axi4stream_vip_pkg.axi4stream_transaction::set_id  File: /home/linuxusr/tools/Vivado/2024.2/data/xilinx_vip/hdl/axi4stream_vip_pkg.sv Line: 495
Warning: [tx] (axi4stream_vip_pkg.axi4stream_transaction::set_dest) 935 ns : Attempted to send DEST (0xdeadbeef) which is wider than dest_width (         1). Truncating DEST to (0x1)
Time: 935001 ps  Iteration: 0  Process: /axi4stream_vip_pkg/axi4stream_mst_driver(C_XIL_AXI4STREAM_SIGNAL_SET=8'b01110011,C_XIL_AXI4STREAM_DEST_WIDTH=1,C_XIL_AXI4STREAM_DATA_WIDTH=512,C_XIL_AXI4STREAM_ID_WIDTH=1,C_XIL_AXI4STREAM_HAS_ARESETN=1)::get_and_drive/GET_AND_DRIVE  Scope: axi4stream_vip_pkg.axi4stream_transaction::set_dest  File: /home/linuxusr/tools/Vivado/2024.2/data/xilinx_vip/hdl/axi4stream_vip_pkg.sv Line: 528
Warning: [tx] (axi4stream_vip_pkg.axi4stream_transaction::set_id) 945 ns : Attempted to send ID (0x12345678) which is wider than id_width (         1). Truncating ID to (0x0)
Time: 945001 ps  Iteration: 0  Process: /axi4stream_vip_pkg/axi4stream_mst_driver(C_XIL_AXI4STREAM_SIGNAL_SET=8'b01110011,C_XIL_AXI4STREAM_DEST_WIDTH=1,C_XIL_AXI4STREAM_DATA_WIDTH=512,C_XIL_AXI4STREAM_ID_WIDTH=1,C_XIL_AXI4STREAM_HAS_ARESETN=1)::get_and_drive/GET_AND_DRIVE  Scope: axi4stream_vip_pkg.axi4stream_transaction::set_id  File: /home/linuxusr/tools/Vivado/2024.2/data/xilinx_vip/hdl/axi4stream_vip_pkg.sv Line: 495
Warning: [tx] (axi4stream_vip_pkg.axi4stream_transaction::set_dest) 945 ns : Attempted to send DEST (0xdeadbeef) which is wider than dest_width (         1). Truncating DEST to (0x1)
Time: 945001 ps  Iteration: 0  Process: /axi4stream_vip_pkg/axi4stream_mst_driver(C_XIL_AXI4STREAM_SIGNAL_SET=8'b01110011,C_XIL_AXI4STREAM_DEST_WIDTH=1,C_XIL_AXI4STREAM_DATA_WIDTH=512,C_XIL_AXI4STREAM_ID_WIDTH=1,C_XIL_AXI4STREAM_HAS_ARESETN=1)::get_and_drive/GET_AND_DRIVE  Scope: axi4stream_vip_pkg.axi4stream_transaction::set_dest  File: /home/linuxusr/tools/Vivado/2024.2/data/xilinx_vip/hdl/axi4stream_vip_pkg.sv Line: 528
[AXIS SEND] with continuous valid : all beats send 완료

Time: 955 ns Started: 945 ns Scope: /tb_layernorm_axi_wrapper/u_axis_slv/inst/IF/PC File: /home/linuxusr/tools/Vivado/2024.2/data/xilinx_vip/hdl/axi4stream_vip_axi4streampc.sv Line:507
Fatal: AXI4STREAM_ERRM_TLAST_STABLE. TLAST must remain stable when TVALID is asserted and TREADY low. Spec: section 2.2.1, and figure 2-1, on page 2-3.
Time: 955 ns  Iteration: 0  Process: /tb_layernorm_axi_wrapper/u_axis_slv/inst/IF/PC//tb_layernorm_axi_wrapper/u_axis_slv/inst/IF/PC  Scope: tb_layernorm_axi_wrapper.u_axis_slv.inst.IF.PC.arm_amba4_pc_msg_err  File: /home/linuxusr/tools/Vivado/2024.2/data/xilinx_vip/hdl/axi4stream_vip_axi4streampc.sv Line: 311
$finish called at time : 955 ns
XilinxAXIVIP: Found at Path: tb_layernorm_axi_wrapper.u_lite_mst.inst
Xilinx AXI4STREAM VIP Found at Path: tb_layernorm_axi_wrapper.u_axis_mst.inst
Xilinx AXI4STREAM VIP Found at Path: tb_layernorm_axi_wrapper.u_axis_slv.inst
[DUT_FSM] t=5 ns ns  IDLE        (status=0)
[LITE WRITE] addr=0x08 data=0x0000000a resp=0
[LITE WRITE] addr=0x0c data=0x00000855 resp=0
[DUT_FSM] t=565 ns ns  ITER1       (status=9)
[LITE WRITE] addr=0x00 data=0x00000001 resp=0
Warning: [tx] (axi4stream_vip_pkg.axi4stream_transaction::set_id) 565 ns : Attempted to send ID (0x12345678) which is wider than id_width (         1). Truncating ID to (0x0)
Time: 565001 ps  Iteration: 0  Process: /axi4stream_vip_pkg/axi4stream_mst_driver(C_XIL_AXI4STREAM_SIGNAL_SET=8'b01110011,C_XIL_AXI4STREAM_DEST_WIDTH=1,C_XIL_AXI4STREAM_DATA_WIDTH=512,C_XIL_AXI4STREAM_ID_WIDTH=1,C_XIL_AXI4STREAM_HAS_ARESETN=1)::get_and_drive/GET_AND_DRIVE  Scope: axi4stream_vip_pkg.axi4stream_transaction::set_id  File: /home/linuxusr/tools/Vivado/2024.2/data/xilinx_vip/hdl/axi4stream_vip_pkg.sv Line: 495
Warning: [tx] (axi4stream_vip_pkg.axi4stream_transaction::set_dest) 565 ns : Attempted to send DEST (0xdeadbeef) which is wider than dest_width (         1). Truncating DEST to (0x1)
Time: 565001 ps  Iteration: 0  Process: /axi4stream_vip_pkg/axi4stream_mst_driver(C_XIL_AXI4STREAM_SIGNAL_SET=8'b01110011,C_XIL_AXI4STREAM_DEST_WIDTH=1,C_XIL_AXI4STREAM_DATA_WIDTH=512,C_XIL_AXI4STREAM_ID_WIDTH=1,C_XIL_AXI4STREAM_HAS_ARESETN=1)::get_and_drive/GET_AND_DRIVE  Scope: axi4stream_vip_pkg.axi4stream_transaction::set_dest  File: /home/linuxusr/tools/Vivado/2024.2/data/xilinx_vip/hdl/axi4stream_vip_pkg.sv Line: 528
Warning: [tx] (axi4stream_vip_pkg.axi4stream_transaction::set_id) 575 ns : Attempted to send ID (0x12345678) which is wider than id_width (         1). Truncating ID to (0x0)
Time: 575001 ps  Iteration: 0  Process: /axi4stream_vip_pkg/axi4stream_mst_driver(C_XIL_AXI4STREAM_SIGNAL_SET=8'b01110011,C_XIL_AXI4STREAM_DEST_WIDTH=1,C_XIL_AXI4STREAM_DATA_WIDTH=512,C_XIL_AXI4STREAM_ID_WIDTH=1,C_XIL_AXI4STREAM_HAS_ARESETN=1)::get_and_drive/GET_AND_DRIVE  Scope: axi4stream_vip_pkg.axi4stream_transaction::set_id  File: /home/linuxusr/tools/Vivado/2024.2/data/xilinx_vip/hdl/axi4stream_vip_pkg.sv Line: 495
Warning: [tx] (axi4stream_vip_pkg.axi4stream_transaction::set_dest) 575 ns : Attempted to send DEST (0xdeadbeef) which is wider than dest_width (         1). Truncating DEST to (0x1)
Time: 575001 ps  Iteration: 0  Process: /axi4stream_vip_pkg/axi4stream_mst_driver(C_XIL_AXI4STREAM_SIGNAL_SET=8'b01110011,C_XIL_AXI4STREAM_DEST_WIDTH=1,C_XIL_AXI4STREAM_DATA_WIDTH=512,C_XIL_AXI4STREAM_ID_WIDTH=1,C_XIL_AXI4STREAM_HAS_ARESETN=1)::get_and_drive/GET_AND_DRIVE  Scope: axi4stream_vip_pkg.axi4stream_transaction::set_dest  File: /home/linuxusr/tools/Vivado/2024.2/data/xilinx_vip/hdl/axi4stream_vip_pkg.sv Line: 528
Warning: [tx] (axi4stream_vip_pkg.axi4stream_transaction::set_id) 585 ns : Attempted to send ID (0x12345678) which is wider than id_width (         1). Truncating ID to (0x0)
Time: 585001 ps  Iteration: 0  Process: /axi4stream_vip_pkg/axi4stream_mst_driver(C_XIL_AXI4STREAM_SIGNAL_SET=8'b01110011,C_XIL_AXI4STREAM_DEST_WIDTH=1,C_XIL_AXI4STREAM_DATA_WIDTH=512,C_XIL_AXI4STREAM_ID_WIDTH=1,C_XIL_AXI4STREAM_HAS_ARESETN=1)::get_and_drive/GET_AND_DRIVE  Scope: axi4stream_vip_pkg.axi4stream_transaction::set_id  File: /home/linuxusr/tools/Vivado/2024.2/data/xilinx_vip/hdl/axi4stream_vip_pkg.sv Line: 495
Warning: [tx] (axi4stream_vip_pkg.axi4stream_transaction::set_dest) 585 ns : Attempted to send DEST (0xdeadbeef) which is wider than dest_width (         1). Truncating DEST to (0x1)
Time: 585001 ps  Iteration: 0  Process: /axi4stream_vip_pkg/axi4stream_mst_driver(C_XIL_AXI4STREAM_SIGNAL_SET=8'b01110011,C_XIL_AXI4STREAM_DEST_WIDTH=1,C_XIL_AXI4STREAM_DATA_WIDTH=512,C_XIL_AXI4STREAM_ID_WIDTH=1,C_XIL_AXI4STREAM_HAS_ARESETN=1)::get_and_drive/GET_AND_DRIVE  Scope: axi4stream_vip_pkg.axi4stream_transaction::set_dest  File: /home/linuxusr/tools/Vivado/2024.2/data/xilinx_vip/hdl/axi4stream_vip_pkg.sv Line: 528
Warning: [tx] (axi4stream_vip_pkg.axi4stream_transaction::set_id) 595 ns : Attempted to send ID (0x12345678) which is wider than id_width (         1). Truncating ID to (0x0)
Time: 595001 ps  Iteration: 0  Process: /axi4stream_vip_pkg/axi4stream_mst_driver(C_XIL_AXI4STREAM_SIGNAL_SET=8'b01110011,C_XIL_AXI4STREAM_DEST_WIDTH=1,C_XIL_AXI4STREAM_DATA_WIDTH=512,C_XIL_AXI4STREAM_ID_WIDTH=1,C_XIL_AXI4STREAM_HAS_ARESETN=1)::get_and_drive/GET_AND_DRIVE  Scope: axi4stream_vip_pkg.axi4stream_transaction::set_id  File: /home/linuxusr/tools/Vivado/2024.2/data/xilinx_vip/hdl/axi4stream_vip_pkg.sv Line: 495
Warning: [tx] (axi4stream_vip_pkg.axi4stream_transaction::set_dest) 595 ns : Attempted to send DEST (0xdeadbeef) which is wider than dest_width (         1). Truncating DEST to (0x1)
Time: 595001 ps  Iteration: 0  Process: /axi4stream_vip_pkg/axi4stream_mst_driver(C_XIL_AXI4STREAM_SIGNAL_SET=8'b01110011,C_XIL_AXI4STREAM_DEST_WIDTH=1,C_XIL_AXI4STREAM_DATA_WIDTH=512,C_XIL_AXI4STREAM_ID_WIDTH=1,C_XIL_AXI4STREAM_HAS_ARESETN=1)::get_and_drive/GET_AND_DRIVE  Scope: axi4stream_vip_pkg.axi4stream_transaction::set_dest  File: /home/linuxusr/tools/Vivado/2024.2/data/xilinx_vip/hdl/axi4stream_vip_pkg.sv Line: 528
Warning: [tx] (axi4stream_vip_pkg.axi4stream_transaction::set_id) 605 ns : Attempted to send ID (0x12345678) which is wider than id_width (         1). Truncating ID to (0x0)
Time: 605001 ps  Iteration: 0  Process: /axi4stream_vip_pkg/axi4stream_mst_driver(C_XIL_AXI4STREAM_SIGNAL_SET=8'b01110011,C_XIL_AXI4STREAM_DEST_WIDTH=1,C_XIL_AXI4STREAM_DATA_WIDTH=512,C_XIL_AXI4STREAM_ID_WIDTH=1,C_XIL_AXI4STREAM_HAS_ARESETN=1)::get_and_drive/GET_AND_DRIVE  Scope: axi4stream_vip_pkg.axi4stream_transaction::set_id  File: /home/linuxusr/tools/Vivado/2024.2/data/xilinx_vip/hdl/axi4stream_vip_pkg.sv Line: 495
Warning: [tx] (axi4stream_vip_pkg.axi4stream_transaction::set_dest) 605 ns : Attempted to send DEST (0xdeadbeef) which is wider than dest_width (         1). Truncating DEST to (0x1)
Time: 605001 ps  Iteration: 0  Process: /axi4stream_vip_pkg/axi4stream_mst_driver(C_XIL_AXI4STREAM_SIGNAL_SET=8'b01110011,C_XIL_AXI4STREAM_DEST_WIDTH=1,C_XIL_AXI4STREAM_DATA_WIDTH=512,C_XIL_AXI4STREAM_ID_WIDTH=1,C_XIL_AXI4STREAM_HAS_ARESETN=1)::get_and_drive/GET_AND_DRIVE  Scope: axi4stream_vip_pkg.axi4stream_transaction::set_dest  File: /home/linuxusr/tools/Vivado/2024.2/data/xilinx_vip/hdl/axi4stream_vip_pkg.sv Line: 528
Warning: [tx] (axi4stream_vip_pkg.axi4stream_transaction::set_id) 615 ns : Attempted to send ID (0x12345678) which is wider than id_width (         1). Truncating ID to (0x0)
Time: 615001 ps  Iteration: 0  Process: /axi4stream_vip_pkg/axi4stream_mst_driver(C_XIL_AXI4STREAM_SIGNAL_SET=8'b01110011,C_XIL_AXI4STREAM_DEST_WIDTH=1,C_XIL_AXI4STREAM_DATA_WIDTH=512,C_XIL_AXI4STREAM_ID_WIDTH=1,C_XIL_AXI4STREAM_HAS_ARESETN=1)::get_and_drive/GET_AND_DRIVE  Scope: axi4stream_vip_pkg.axi4stream_transaction::set_id  File: /home/linuxusr/tools/Vivado/2024.2/data/xilinx_vip/hdl/axi4stream_vip_pkg.sv Line: 495
Warning: [tx] (axi4stream_vip_pkg.axi4stream_transaction::set_dest) 615 ns : Attempted to send DEST (0xdeadbeef) which is wider than dest_width (         1). Truncating DEST to (0x1)
Time: 615001 ps  Iteration: 0  Process: /axi4stream_vip_pkg/axi4stream_mst_driver(C_XIL_AXI4STREAM_SIGNAL_SET=8'b01110011,C_XIL_AXI4STREAM_DEST_WIDTH=1,C_XIL_AXI4STREAM_DATA_WIDTH=512,C_XIL_AXI4STREAM_ID_WIDTH=1,C_XIL_AXI4STREAM_HAS_ARESETN=1)::get_and_drive/GET_AND_DRIVE  Scope: axi4stream_vip_pkg.axi4stream_transaction::set_dest  File: /home/linuxusr/tools/Vivado/2024.2/data/xilinx_vip/hdl/axi4stream_vip_pkg.sv Line: 528
Warning: [tx] (axi4stream_vip_pkg.axi4stream_transaction::set_id) 625 ns : Attempted to send ID (0x12345678) which is wider than id_width (         1). Truncating ID to (0x0)
Time: 625001 ps  Iteration: 0  Process: /axi4stream_vip_pkg/axi4stream_mst_driver(C_XIL_AXI4STREAM_SIGNAL_SET=8'b01110011,C_XIL_AXI4STREAM_DEST_WIDTH=1,C_XIL_AXI4STREAM_DATA_WIDTH=512,C_XIL_AXI4STREAM_ID_WIDTH=1,C_XIL_AXI4STREAM_HAS_ARESETN=1)::get_and_drive/GET_AND_DRIVE  Scope: axi4stream_vip_pkg.axi4stream_transaction::set_id  File: /home/linuxusr/tools/Vivado/2024.2/data/xilinx_vip/hdl/axi4stream_vip_pkg.sv Line: 495
Warning: [tx] (axi4stream_vip_pkg.axi4stream_transaction::set_dest) 625 ns : Attempted to send DEST (0xdeadbeef) which is wider than dest_width (         1). Truncating DEST to (0x1)
Time: 625001 ps  Iteration: 0  Process: /axi4stream_vip_pkg/axi4stream_mst_driver(C_XIL_AXI4STREAM_SIGNAL_SET=8'b01110011,C_XIL_AXI4STREAM_DEST_WIDTH=1,C_XIL_AXI4STREAM_DATA_WIDTH=512,C_XIL_AXI4STREAM_ID_WIDTH=1,C_XIL_AXI4STREAM_HAS_ARESETN=1)::get_and_drive/GET_AND_DRIVE  Scope: axi4stream_vip_pkg.axi4stream_transaction::set_dest  File: /home/linuxusr/tools/Vivado/2024.2/data/xilinx_vip/hdl/axi4stream_vip_pkg.sv Line: 528
Warning: [tx] (axi4stream_vip_pkg.axi4stream_transaction::set_id) 635 ns : Attempted to send ID (0x12345678) which is wider than id_width (         1). Truncating ID to (0x0)
Time: 635001 ps  Iteration: 0  Process: /axi4stream_vip_pkg/axi4stream_mst_driver(C_XIL_AXI4STREAM_SIGNAL_SET=8'b01110011,C_XIL_AXI4STREAM_DEST_WIDTH=1,C_XIL_AXI4STREAM_DATA_WIDTH=512,C_XIL_AXI4STREAM_ID_WIDTH=1,C_XIL_AXI4STREAM_HAS_ARESETN=1)::get_and_drive/GET_AND_DRIVE  Scope: axi4stream_vip_pkg.axi4stream_transaction::set_id  File: /home/linuxusr/tools/Vivado/2024.2/data/xilinx_vip/hdl/axi4stream_vip_pkg.sv Line: 495
Warning: [tx] (axi4stream_vip_pkg.axi4stream_transaction::set_dest) 635 ns : Attempted to send DEST (0xdeadbeef) which is wider than dest_width (         1). Truncating DEST to (0x1)
Time: 635001 ps  Iteration: 0  Process: /axi4stream_vip_pkg/axi4stream_mst_driver(C_XIL_AXI4STREAM_SIGNAL_SET=8'b01110011,C_XIL_AXI4STREAM_DEST_WIDTH=1,C_XIL_AXI4STREAM_DATA_WIDTH=512,C_XIL_AXI4STREAM_ID_WIDTH=1,C_XIL_AXI4STREAM_HAS_ARESETN=1)::get_and_drive/GET_AND_DRIVE  Scope: axi4stream_vip_pkg.axi4stream_transaction::set_dest  File: /home/linuxusr/tools/Vivado/2024.2/data/xilinx_vip/hdl/axi4stream_vip_pkg.sv Line: 528
Warning: [tx] (axi4stream_vip_pkg.axi4stream_transaction::set_id) 645 ns : Attempted to send ID (0x12345678) which is wider than id_width (         1). Truncating ID to (0x0)
Time: 645001 ps  Iteration: 0  Process: /axi4stream_vip_pkg/axi4stream_mst_driver(C_XIL_AXI4STREAM_SIGNAL_SET=8'b01110011,C_XIL_AXI4STREAM_DEST_WIDTH=1,C_XIL_AXI4STREAM_DATA_WIDTH=512,C_XIL_AXI4STREAM_ID_WIDTH=1,C_XIL_AXI4STREAM_HAS_ARESETN=1)::get_and_drive/GET_AND_DRIVE  Scope: axi4stream_vip_pkg.axi4stream_transaction::set_id  File: /home/linuxusr/tools/Vivado/2024.2/data/xilinx_vip/hdl/axi4stream_vip_pkg.sv Line: 495
Warning: [tx] (axi4stream_vip_pkg.axi4stream_transaction::set_dest) 645 ns : Attempted to send DEST (0xdeadbeef) which is wider than dest_width (         1). Truncating DEST to (0x1)
Time: 645001 ps  Iteration: 0  Process: /axi4stream_vip_pkg/axi4stream_mst_driver(C_XIL_AXI4STREAM_SIGNAL_SET=8'b01110011,C_XIL_AXI4STREAM_DEST_WIDTH=1,C_XIL_AXI4STREAM_DATA_WIDTH=512,C_XIL_AXI4STREAM_ID_WIDTH=1,C_XIL_AXI4STREAM_HAS_ARESETN=1)::get_and_drive/GET_AND_DRIVE  Scope: axi4stream_vip_pkg.axi4stream_transaction::set_dest  File: /home/linuxusr/tools/Vivado/2024.2/data/xilinx_vip/hdl/axi4stream_vip_pkg.sv Line: 528
Warning: [tx] (axi4stream_vip_pkg.axi4stream_transaction::set_id) 655 ns : Attempted to send ID (0x12345678) which is wider than id_width (         1). Truncating ID to (0x0)
Time: 655001 ps  Iteration: 0  Process: /axi4stream_vip_pkg/axi4stream_mst_driver(C_XIL_AXI4STREAM_SIGNAL_SET=8'b01110011,C_XIL_AXI4STREAM_DEST_WIDTH=1,C_XIL_AXI4STREAM_DATA_WIDTH=512,C_XIL_AXI4STREAM_ID_WIDTH=1,C_XIL_AXI4STREAM_HAS_ARESETN=1)::get_and_drive/GET_AND_DRIVE  Scope: axi4stream_vip_pkg.axi4stream_transaction::set_id  File: /home/linuxusr/tools/Vivado/2024.2/data/xilinx_vip/hdl/axi4stream_vip_pkg.sv Line: 495
Warning: [tx] (axi4stream_vip_pkg.axi4stream_transaction::set_dest) 655 ns : Attempted to send DEST (0xdeadbeef) which is wider than dest_width (         1). Truncating DEST to (0x1)
Time: 655001 ps  Iteration: 0  Process: /axi4stream_vip_pkg/axi4stream_mst_driver(C_XIL_AXI4STREAM_SIGNAL_SET=8'b01110011,C_XIL_AXI4STREAM_DEST_WIDTH=1,C_XIL_AXI4STREAM_DATA_WIDTH=512,C_XIL_AXI4STREAM_ID_WIDTH=1,C_XIL_AXI4STREAM_HAS_ARESETN=1)::get_and_drive/GET_AND_DRIVE  Scope: axi4stream_vip_pkg.axi4stream_transaction::set_dest  File: /home/linuxusr/tools/Vivado/2024.2/data/xilinx_vip/hdl/axi4stream_vip_pkg.sv Line: 528
[AXIS SEND] with continuous valid : all beats send 완료
[LITE READ]  addr=0x04 data=0x00000009
[LITE READ]  addr=0x04 data=0x00000009
[DUT_FSM] t=735 ns ns  STORE       (status=9)
[DUT_FSM] t=745 ns ns  WAIT_ITER2  (status=1)
[LITE READ]  addr=0x04 data=0x00000009
[LITE READ]  addr=0x04 data=0x00000001
>>> ITER1 완료,WAIT_ITER2 
[DUT_FSM] t=855 ns ns  ITER2       (status=2)
[LITE WRITE] addr=0x00 data=0x00000002 resp=0
Warning: [tx] (axi4stream_vip_pkg.axi4stream_transaction::set_id) 855 ns : Attempted to send ID (0x12345678) which is wider than id_width (         1). Truncating ID to (0x0)
Time: 855001 ps  Iteration: 0  Process: /axi4stream_vip_pkg/axi4stream_mst_driver(C_XIL_AXI4STREAM_SIGNAL_SET=8'b01110011,C_XIL_AXI4STREAM_DEST_WIDTH=1,C_XIL_AXI4STREAM_DATA_WIDTH=512,C_XIL_AXI4STREAM_ID_WIDTH=1,C_XIL_AXI4STREAM_HAS_ARESETN=1)::get_and_drive/GET_AND_DRIVE  Scope: axi4stream_vip_pkg.axi4stream_transaction::set_id  File: /home/linuxusr/tools/Vivado/2024.2/data/xilinx_vip/hdl/axi4stream_vip_pkg.sv Line: 495
Warning: [tx] (axi4stream_vip_pkg.axi4stream_transaction::set_dest) 855 ns : Attempted to send DEST (0xdeadbeef) which is wider than dest_width (         1). Truncating DEST to (0x1)
Time: 855001 ps  Iteration: 0  Process: /axi4stream_vip_pkg/axi4stream_mst_driver(C_XIL_AXI4STREAM_SIGNAL_SET=8'b01110011,C_XIL_AXI4STREAM_DEST_WIDTH=1,C_XIL_AXI4STREAM_DATA_WIDTH=512,C_XIL_AXI4STREAM_ID_WIDTH=1,C_XIL_AXI4STREAM_HAS_ARESETN=1)::get_and_drive/GET_AND_DRIVE  Scope: axi4stream_vip_pkg.axi4stream_transaction::set_dest  File: /home/linuxusr/tools/Vivado/2024.2/data/xilinx_vip/hdl/axi4stream_vip_pkg.sv Line: 528
Warning: [tx] (axi4stream_vip_pkg.axi4stream_transaction::set_id) 865 ns : Attempted to send ID (0x12345678) which is wider than id_width (         1). Truncating ID to (0x0)
Time: 865001 ps  Iteration: 0  Process: /axi4stream_vip_pkg/axi4stream_mst_driver(C_XIL_AXI4STREAM_SIGNAL_SET=8'b01110011,C_XIL_AXI4STREAM_DEST_WIDTH=1,C_XIL_AXI4STREAM_DATA_WIDTH=512,C_XIL_AXI4STREAM_ID_WIDTH=1,C_XIL_AXI4STREAM_HAS_ARESETN=1)::get_and_drive/GET_AND_DRIVE  Scope: axi4stream_vip_pkg.axi4stream_transaction::set_id  File: /home/linuxusr/tools/Vivado/2024.2/data/xilinx_vip/hdl/axi4stream_vip_pkg.sv Line: 495
Warning: [tx] (axi4stream_vip_pkg.axi4stream_transaction::set_dest) 865 ns : Attempted to send DEST (0xdeadbeef) which is wider than dest_width (         1). Truncating DEST to (0x1)
Time: 865001 ps  Iteration: 0  Process: /axi4stream_vip_pkg/axi4stream_mst_driver(C_XIL_AXI4STREAM_SIGNAL_SET=8'b01110011,C_XIL_AXI4STREAM_DEST_WIDTH=1,C_XIL_AXI4STREAM_DATA_WIDTH=512,C_XIL_AXI4STREAM_ID_WIDTH=1,C_XIL_AXI4STREAM_HAS_ARESETN=1)::get_and_drive/GET_AND_DRIVE  Scope: axi4stream_vip_pkg.axi4stream_transaction::set_dest  File: /home/linuxusr/tools/Vivado/2024.2/data/xilinx_vip/hdl/axi4stream_vip_pkg.sv Line: 528
[OUT] first row data[15:0] in 32row =0000 , tlast=0
Warning: [tx] (axi4stream_vip_pkg.axi4stream_transaction::set_id) 875 ns : Attempted to send ID (0x12345678) which is wider than id_width (         1). Truncating ID to (0x0)
Time: 875001 ps  Iteration: 0  Process: /axi4stream_vip_pkg/axi4stream_mst_driver(C_XIL_AXI4STREAM_SIGNAL_SET=8'b01110011,C_XIL_AXI4STREAM_DEST_WIDTH=1,C_XIL_AXI4STREAM_DATA_WIDTH=512,C_XIL_AXI4STREAM_ID_WIDTH=1,C_XIL_AXI4STREAM_HAS_ARESETN=1)::get_and_drive/GET_AND_DRIVE  Scope: axi4stream_vip_pkg.axi4stream_transaction::set_id  File: /home/linuxusr/tools/Vivado/2024.2/data/xilinx_vip/hdl/axi4stream_vip_pkg.sv Line: 495
Warning: [tx] (axi4stream_vip_pkg.axi4stream_transaction::set_dest) 875 ns : Attempted to send DEST (0xdeadbeef) which is wider than dest_width (         1). Truncating DEST to (0x1)
Time: 875001 ps  Iteration: 0  Process: /axi4stream_vip_pkg/axi4stream_mst_driver(C_XIL_AXI4STREAM_SIGNAL_SET=8'b01110011,C_XIL_AXI4STREAM_DEST_WIDTH=1,C_XIL_AXI4STREAM_DATA_WIDTH=512,C_XIL_AXI4STREAM_ID_WIDTH=1,C_XIL_AXI4STREAM_HAS_ARESETN=1)::get_and_drive/GET_AND_DRIVE  Scope: axi4stream_vip_pkg.axi4stream_transaction::set_dest  File: /home/linuxusr/tools/Vivado/2024.2/data/xilinx_vip/hdl/axi4stream_vip_pkg.sv Line: 528
Warning: [tx] (axi4stream_vip_pkg.axi4stream_transaction::set_id) 885 ns : Attempted to send ID (0x12345678) which is wider than id_width (         1). Truncating ID to (0x0)
Time: 885001 ps  Iteration: 0  Process: /axi4stream_vip_pkg/axi4stream_mst_driver(C_XIL_AXI4STREAM_SIGNAL_SET=8'b01110011,C_XIL_AXI4STREAM_DEST_WIDTH=1,C_XIL_AXI4STREAM_DATA_WIDTH=512,C_XIL_AXI4STREAM_ID_WIDTH=1,C_XIL_AXI4STREAM_HAS_ARESETN=1)::get_and_drive/GET_AND_DRIVE  Scope: axi4stream_vip_pkg.axi4stream_transaction::set_id  File: /home/linuxusr/tools/Vivado/2024.2/data/xilinx_vip/hdl/axi4stream_vip_pkg.sv Line: 495
Warning: [tx] (axi4stream_vip_pkg.axi4stream_transaction::set_dest) 885 ns : Attempted to send DEST (0xdeadbeef) which is wider than dest_width (         1). Truncating DEST to (0x1)
Time: 885001 ps  Iteration: 0  Process: /axi4stream_vip_pkg/axi4stream_mst_driver(C_XIL_AXI4STREAM_SIGNAL_SET=8'b01110011,C_XIL_AXI4STREAM_DEST_WIDTH=1,C_XIL_AXI4STREAM_DATA_WIDTH=512,C_XIL_AXI4STREAM_ID_WIDTH=1,C_XIL_AXI4STREAM_HAS_ARESETN=1)::get_and_drive/GET_AND_DRIVE  Scope: axi4stream_vip_pkg.axi4stream_transaction::set_dest  File: /home/linuxusr/tools/Vivado/2024.2/data/xilinx_vip/hdl/axi4stream_vip_pkg.sv Line: 528
Warning: [tx] (axi4stream_vip_pkg.axi4stream_transaction::set_id) 895 ns : Attempted to send ID (0x12345678) which is wider than id_width (         1). Truncating ID to (0x0)
Time: 895001 ps  Iteration: 0  Process: /axi4stream_vip_pkg/axi4stream_mst_driver(C_XIL_AXI4STREAM_SIGNAL_SET=8'b01110011,C_XIL_AXI4STREAM_DEST_WIDTH=1,C_XIL_AXI4STREAM_DATA_WIDTH=512,C_XIL_AXI4STREAM_ID_WIDTH=1,C_XIL_AXI4STREAM_HAS_ARESETN=1)::get_and_drive/GET_AND_DRIVE  Scope: axi4stream_vip_pkg.axi4stream_transaction::set_id  File: /home/linuxusr/tools/Vivado/2024.2/data/xilinx_vip/hdl/axi4stream_vip_pkg.sv Line: 495
Warning: [tx] (axi4stream_vip_pkg.axi4stream_transaction::set_dest) 895 ns : Attempted to send DEST (0xdeadbeef) which is wider than dest_width (         1). Truncating DEST to (0x1)
Time: 895001 ps  Iteration: 0  Process: /axi4stream_vip_pkg/axi4stream_mst_driver(C_XIL_AXI4STREAM_SIGNAL_SET=8'b01110011,C_XIL_AXI4STREAM_DEST_WIDTH=1,C_XIL_AXI4STREAM_DATA_WIDTH=512,C_XIL_AXI4STREAM_ID_WIDTH=1,C_XIL_AXI4STREAM_HAS_ARESETN=1)::get_and_drive/GET_AND_DRIVE  Scope: axi4stream_vip_pkg.axi4stream_transaction::set_dest  File: /home/linuxusr/tools/Vivado/2024.2/data/xilinx_vip/hdl/axi4stream_vip_pkg.sv Line: 528
[OUT] first row data[15:0] in 32row =0000 , tlast=0
Warning: [tx] (axi4stream_vip_pkg.axi4stream_transaction::set_id) 905 ns : Attempted to send ID (0x12345678) which is wider than id_width (         1). Truncating ID to (0x0)
Time: 905001 ps  Iteration: 0  Process: /axi4stream_vip_pkg/axi4stream_mst_driver(C_XIL_AXI4STREAM_SIGNAL_SET=8'b01110011,C_XIL_AXI4STREAM_DEST_WIDTH=1,C_XIL_AXI4STREAM_DATA_WIDTH=512,C_XIL_AXI4STREAM_ID_WIDTH=1,C_XIL_AXI4STREAM_HAS_ARESETN=1)::get_and_drive/GET_AND_DRIVE  Scope: axi4stream_vip_pkg.axi4stream_transaction::set_id  File: /home/linuxusr/tools/Vivado/2024.2/data/xilinx_vip/hdl/axi4stream_vip_pkg.sv Line: 495
Warning: [tx] (axi4stream_vip_pkg.axi4stream_transaction::set_dest) 905 ns : Attempted to send DEST (0xdeadbeef) which is wider than dest_width (         1). Truncating DEST to (0x1)
Time: 905001 ps  Iteration: 0  Process: /axi4stream_vip_pkg/axi4stream_mst_driver(C_XIL_AXI4STREAM_SIGNAL_SET=8'b01110011,C_XIL_AXI4STREAM_DEST_WIDTH=1,C_XIL_AXI4STREAM_DATA_WIDTH=512,C_XIL_AXI4STREAM_ID_WIDTH=1,C_XIL_AXI4STREAM_HAS_ARESETN=1)::get_and_drive/GET_AND_DRIVE  Scope: axi4stream_vip_pkg.axi4stream_transaction::set_dest  File: /home/linuxusr/tools/Vivado/2024.2/data/xilinx_vip/hdl/axi4stream_vip_pkg.sv Line: 528
Warning: [tx] (axi4stream_vip_pkg.axi4stream_transaction::set_id) 915 ns : Attempted to send ID (0x12345678) which is wider than id_width (         1). Truncating ID to (0x0)
Time: 915001 ps  Iteration: 0  Process: /axi4stream_vip_pkg/axi4stream_mst_driver(C_XIL_AXI4STREAM_SIGNAL_SET=8'b01110011,C_XIL_AXI4STREAM_DEST_WIDTH=1,C_XIL_AXI4STREAM_DATA_WIDTH=512,C_XIL_AXI4STREAM_ID_WIDTH=1,C_XIL_AXI4STREAM_HAS_ARESETN=1)::get_and_drive/GET_AND_DRIVE  Scope: axi4stream_vip_pkg.axi4stream_transaction::set_id  File: /home/linuxusr/tools/Vivado/2024.2/data/xilinx_vip/hdl/axi4stream_vip_pkg.sv Line: 495
Warning: [tx] (axi4stream_vip_pkg.axi4stream_transaction::set_dest) 915 ns : Attempted to send DEST (0xdeadbeef) which is wider than dest_width (         1). Truncating DEST to (0x1)
Time: 915001 ps  Iteration: 0  Process: /axi4stream_vip_pkg/axi4stream_mst_driver(C_XIL_AXI4STREAM_SIGNAL_SET=8'b01110011,C_XIL_AXI4STREAM_DEST_WIDTH=1,C_XIL_AXI4STREAM_DATA_WIDTH=512,C_XIL_AXI4STREAM_ID_WIDTH=1,C_XIL_AXI4STREAM_HAS_ARESETN=1)::get_and_drive/GET_AND_DRIVE  Scope: axi4stream_vip_pkg.axi4stream_transaction::set_dest  File: /home/linuxusr/tools/Vivado/2024.2/data/xilinx_vip/hdl/axi4stream_vip_pkg.sv Line: 528
Warning: [tx] (axi4stream_vip_pkg.axi4stream_transaction::set_id) 925 ns : Attempted to send ID (0x12345678) which is wider than id_width (         1). Truncating ID to (0x0)
Time: 925001 ps  Iteration: 0  Process: /axi4stream_vip_pkg/axi4stream_mst_driver(C_XIL_AXI4STREAM_SIGNAL_SET=8'b01110011,C_XIL_AXI4STREAM_DEST_WIDTH=1,C_XIL_AXI4STREAM_DATA_WIDTH=512,C_XIL_AXI4STREAM_ID_WIDTH=1,C_XIL_AXI4STREAM_HAS_ARESETN=1)::get_and_drive/GET_AND_DRIVE  Scope: axi4stream_vip_pkg.axi4stream_transaction::set_id  File: /home/linuxusr/tools/Vivado/2024.2/data/xilinx_vip/hdl/axi4stream_vip_pkg.sv Line: 495
Warning: [tx] (axi4stream_vip_pkg.axi4stream_transaction::set_dest) 925 ns : Attempted to send DEST (0xdeadbeef) which is wider than dest_width (         1). Truncating DEST to (0x1)
Time: 925001 ps  Iteration: 0  Process: /axi4stream_vip_pkg/axi4stream_mst_driver(C_XIL_AXI4STREAM_SIGNAL_SET=8'b01110011,C_XIL_AXI4STREAM_DEST_WIDTH=1,C_XIL_AXI4STREAM_DATA_WIDTH=512,C_XIL_AXI4STREAM_ID_WIDTH=1,C_XIL_AXI4STREAM_HAS_ARESETN=1)::get_and_drive/GET_AND_DRIVE  Scope: axi4stream_vip_pkg.axi4stream_transaction::set_dest  File: /home/linuxusr/tools/Vivado/2024.2/data/xilinx_vip/hdl/axi4stream_vip_pkg.sv Line: 528
[OUT] first row data[15:0] in 32row =0000 , tlast=0
Warning: [tx] (axi4stream_vip_pkg.axi4stream_transaction::set_id) 935 ns : Attempted to send ID (0x12345678) which is wider than id_width (         1). Truncating ID to (0x0)
Time: 935001 ps  Iteration: 0  Process: /axi4stream_vip_pkg/axi4stream_mst_driver(C_XIL_AXI4STREAM_SIGNAL_SET=8'b01110011,C_XIL_AXI4STREAM_DEST_WIDTH=1,C_XIL_AXI4STREAM_DATA_WIDTH=512,C_XIL_AXI4STREAM_ID_WIDTH=1,C_XIL_AXI4STREAM_HAS_ARESETN=1)::get_and_drive/GET_AND_DRIVE  Scope: axi4stream_vip_pkg.axi4stream_transaction::set_id  File: /home/linuxusr/tools/Vivado/2024.2/data/xilinx_vip/hdl/axi4stream_vip_pkg.sv Line: 495
Warning: [tx] (axi4stream_vip_pkg.axi4stream_transaction::set_dest) 935 ns : Attempted to send DEST (0xdeadbeef) which is wider than dest_width (         1). Truncating DEST to (0x1)
Time: 935001 ps  Iteration: 0  Process: /axi4stream_vip_pkg/axi4stream_mst_driver(C_XIL_AXI4STREAM_SIGNAL_SET=8'b01110011,C_XIL_AXI4STREAM_DEST_WIDTH=1,C_XIL_AXI4STREAM_DATA_WIDTH=512,C_XIL_AXI4STREAM_ID_WIDTH=1,C_XIL_AXI4STREAM_HAS_ARESETN=1)::get_and_drive/GET_AND_DRIVE  Scope: axi4stream_vip_pkg.axi4stream_transaction::set_dest  File: /home/linuxusr/tools/Vivado/2024.2/data/xilinx_vip/hdl/axi4stream_vip_pkg.sv Line: 528
Warning: [tx] (axi4stream_vip_pkg.axi4stream_transaction::set_id) 945 ns : Attempted to send ID (0x12345678) which is wider than id_width (         1). Truncating ID to (0x0)
Time: 945001 ps  Iteration: 0  Process: /axi4stream_vip_pkg/axi4stream_mst_driver(C_XIL_AXI4STREAM_SIGNAL_SET=8'b01110011,C_XIL_AXI4STREAM_DEST_WIDTH=1,C_XIL_AXI4STREAM_DATA_WIDTH=512,C_XIL_AXI4STREAM_ID_WIDTH=1,C_XIL_AXI4STREAM_HAS_ARESETN=1)::get_and_drive/GET_AND_DRIVE  Scope: axi4stream_vip_pkg.axi4stream_transaction::set_id  File: /home/linuxusr/tools/Vivado/2024.2/data/xilinx_vip/hdl/axi4stream_vip_pkg.sv Line: 495
Warning: [tx] (axi4stream_vip_pkg.axi4stream_transaction::set_dest) 945 ns : Attempted to send DEST (0xdeadbeef) which is wider than dest_width (         1). Truncating DEST to (0x1)
Time: 945001 ps  Iteration: 0  Process: /axi4stream_vip_pkg/axi4stream_mst_driver(C_XIL_AXI4STREAM_SIGNAL_SET=8'b01110011,C_XIL_AXI4STREAM_DEST_WIDTH=1,C_XIL_AXI4STREAM_DATA_WIDTH=512,C_XIL_AXI4STREAM_ID_WIDTH=1,C_XIL_AXI4STREAM_HAS_ARESETN=1)::get_and_drive/GET_AND_DRIVE  Scope: axi4stream_vip_pkg.axi4stream_transaction::set_dest  File: /home/linuxusr/tools/Vivado/2024.2/data/xilinx_vip/hdl/axi4stream_vip_pkg.sv Line: 528
[AXIS SEND] with continuous valid : all beats send 완료

Time: 955 ns Started: 945 ns Scope: /tb_layernorm_axi_wrapper/u_axis_slv/inst/IF/PC File: /home/linuxusr/tools/Vivado/2024.2/data/xilinx_vip/hdl/axi4stream_vip_axi4streampc.sv Line:507
Fatal: AXI4STREAM_ERRM_TLAST_STABLE. TLAST must remain stable when TVALID is asserted and TREADY low. Spec: section 2.2.1, and figure 2-1, on page 2-3.
Time: 955 ns  Iteration: 0  Process: /tb_layernorm_axi_wrapper/u_axis_slv/inst/IF/PC//tb_layernorm_axi_wrapper/u_axis_slv/inst/IF/PC  Scope: tb_layernorm_axi_wrapper.u_axis_slv.inst.IF.PC.arm_amba4_pc_msg_err  File: /home/linuxusr/tools/Vivado/2024.2/data/xilinx_vip/hdl/axi4stream_vip_axi4streampc.sv Line: 311
$finish called at time : 955 ns
XilinxAXIVIP: Found at Path: tb_layernorm_axi_wrapper.u_lite_mst.inst
Xilinx AXI4STREAM VIP Found at Path: tb_layernorm_axi_wrapper.u_axis_mst.inst
Xilinx AXI4STREAM VIP Found at Path: tb_layernorm_axi_wrapper.u_axis_slv.inst
[DUT_FSM] t=5 ns ns  IDLE        (status=0)
[LITE WRITE] addr=0x08 data=0x0000000a resp=0
[LITE WRITE] addr=0x0c data=0x00000855 resp=0
[DUT_FSM] t=565 ns ns  ITER1       (status=9)
[LITE WRITE] addr=0x00 data=0x00000001 resp=0
Warning: [tx] (axi4stream_vip_pkg.axi4stream_transaction::set_id) 565 ns : Attempted to send ID (0x12345678) which is wider than id_width (         1). Truncating ID to (0x0)
Time: 565001 ps  Iteration: 0  Process: /axi4stream_vip_pkg/axi4stream_mst_driver(C_XIL_AXI4STREAM_SIGNAL_SET=8'b01110011,C_XIL_AXI4STREAM_DEST_WIDTH=1,C_XIL_AXI4STREAM_DATA_WIDTH=512,C_XIL_AXI4STREAM_ID_WIDTH=1,C_XIL_AXI4STREAM_HAS_ARESETN=1)::get_and_drive/GET_AND_DRIVE  Scope: axi4stream_vip_pkg.axi4stream_transaction::set_id  File: /home/linuxusr/tools/Vivado/2024.2/data/xilinx_vip/hdl/axi4stream_vip_pkg.sv Line: 495
Warning: [tx] (axi4stream_vip_pkg.axi4stream_transaction::set_dest) 565 ns : Attempted to send DEST (0xdeadbeef) which is wider than dest_width (         1). Truncating DEST to (0x1)
Time: 565001 ps  Iteration: 0  Process: /axi4stream_vip_pkg/axi4stream_mst_driver(C_XIL_AXI4STREAM_SIGNAL_SET=8'b01110011,C_XIL_AXI4STREAM_DEST_WIDTH=1,C_XIL_AXI4STREAM_DATA_WIDTH=512,C_XIL_AXI4STREAM_ID_WIDTH=1,C_XIL_AXI4STREAM_HAS_ARESETN=1)::get_and_drive/GET_AND_DRIVE  Scope: axi4stream_vip_pkg.axi4stream_transaction::set_dest  File: /home/linuxusr/tools/Vivado/2024.2/data/xilinx_vip/hdl/axi4stream_vip_pkg.sv Line: 528
Warning: [tx] (axi4stream_vip_pkg.axi4stream_transaction::set_id) 575 ns : Attempted to send ID (0x12345678) which is wider than id_width (         1). Truncating ID to (0x0)
Time: 575001 ps  Iteration: 0  Process: /axi4stream_vip_pkg/axi4stream_mst_driver(C_XIL_AXI4STREAM_SIGNAL_SET=8'b01110011,C_XIL_AXI4STREAM_DEST_WIDTH=1,C_XIL_AXI4STREAM_DATA_WIDTH=512,C_XIL_AXI4STREAM_ID_WIDTH=1,C_XIL_AXI4STREAM_HAS_ARESETN=1)::get_and_drive/GET_AND_DRIVE  Scope: axi4stream_vip_pkg.axi4stream_transaction::set_id  File: /home/linuxusr/tools/Vivado/2024.2/data/xilinx_vip/hdl/axi4stream_vip_pkg.sv Line: 495
Warning: [tx] (axi4stream_vip_pkg.axi4stream_transaction::set_dest) 575 ns : Attempted to send DEST (0xdeadbeef) which is wider than dest_width (         1). Truncating DEST to (0x1)
Time: 575001 ps  Iteration: 0  Process: /axi4stream_vip_pkg/axi4stream_mst_driver(C_XIL_AXI4STREAM_SIGNAL_SET=8'b01110011,C_XIL_AXI4STREAM_DEST_WIDTH=1,C_XIL_AXI4STREAM_DATA_WIDTH=512,C_XIL_AXI4STREAM_ID_WIDTH=1,C_XIL_AXI4STREAM_HAS_ARESETN=1)::get_and_drive/GET_AND_DRIVE  Scope: axi4stream_vip_pkg.axi4stream_transaction::set_dest  File: /home/linuxusr/tools/Vivado/2024.2/data/xilinx_vip/hdl/axi4stream_vip_pkg.sv Line: 528
Warning: [tx] (axi4stream_vip_pkg.axi4stream_transaction::set_id) 585 ns : Attempted to send ID (0x12345678) which is wider than id_width (         1). Truncating ID to (0x0)
Time: 585001 ps  Iteration: 0  Process: /axi4stream_vip_pkg/axi4stream_mst_driver(C_XIL_AXI4STREAM_SIGNAL_SET=8'b01110011,C_XIL_AXI4STREAM_DEST_WIDTH=1,C_XIL_AXI4STREAM_DATA_WIDTH=512,C_XIL_AXI4STREAM_ID_WIDTH=1,C_XIL_AXI4STREAM_HAS_ARESETN=1)::get_and_drive/GET_AND_DRIVE  Scope: axi4stream_vip_pkg.axi4stream_transaction::set_id  File: /home/linuxusr/tools/Vivado/2024.2/data/xilinx_vip/hdl/axi4stream_vip_pkg.sv Line: 495
Warning: [tx] (axi4stream_vip_pkg.axi4stream_transaction::set_dest) 585 ns : Attempted to send DEST (0xdeadbeef) which is wider than dest_width (         1). Truncating DEST to (0x1)
Time: 585001 ps  Iteration: 0  Process: /axi4stream_vip_pkg/axi4stream_mst_driver(C_XIL_AXI4STREAM_SIGNAL_SET=8'b01110011,C_XIL_AXI4STREAM_DEST_WIDTH=1,C_XIL_AXI4STREAM_DATA_WIDTH=512,C_XIL_AXI4STREAM_ID_WIDTH=1,C_XIL_AXI4STREAM_HAS_ARESETN=1)::get_and_drive/GET_AND_DRIVE  Scope: axi4stream_vip_pkg.axi4stream_transaction::set_dest  File: /home/linuxusr/tools/Vivado/2024.2/data/xilinx_vip/hdl/axi4stream_vip_pkg.sv Line: 528
Warning: [tx] (axi4stream_vip_pkg.axi4stream_transaction::set_id) 595 ns : Attempted to send ID (0x12345678) which is wider than id_width (         1). Truncating ID to (0x0)
Time: 595001 ps  Iteration: 0  Process: /axi4stream_vip_pkg/axi4stream_mst_driver(C_XIL_AXI4STREAM_SIGNAL_SET=8'b01110011,C_XIL_AXI4STREAM_DEST_WIDTH=1,C_XIL_AXI4STREAM_DATA_WIDTH=512,C_XIL_AXI4STREAM_ID_WIDTH=1,C_XIL_AXI4STREAM_HAS_ARESETN=1)::get_and_drive/GET_AND_DRIVE  Scope: axi4stream_vip_pkg.axi4stream_transaction::set_id  File: /home/linuxusr/tools/Vivado/2024.2/data/xilinx_vip/hdl/axi4stream_vip_pkg.sv Line: 495
Warning: [tx] (axi4stream_vip_pkg.axi4stream_transaction::set_dest) 595 ns : Attempted to send DEST (0xdeadbeef) which is wider than dest_width (         1). Truncating DEST to (0x1)
Time: 595001 ps  Iteration: 0  Process: /axi4stream_vip_pkg/axi4stream_mst_driver(C_XIL_AXI4STREAM_SIGNAL_SET=8'b01110011,C_XIL_AXI4STREAM_DEST_WIDTH=1,C_XIL_AXI4STREAM_DATA_WIDTH=512,C_XIL_AXI4STREAM_ID_WIDTH=1,C_XIL_AXI4STREAM_HAS_ARESETN=1)::get_and_drive/GET_AND_DRIVE  Scope: axi4stream_vip_pkg.axi4stream_transaction::set_dest  File: /home/linuxusr/tools/Vivado/2024.2/data/xilinx_vip/hdl/axi4stream_vip_pkg.sv Line: 528
Warning: [tx] (axi4stream_vip_pkg.axi4stream_transaction::set_id) 605 ns : Attempted to send ID (0x12345678) which is wider than id_width (         1). Truncating ID to (0x0)
Time: 605001 ps  Iteration: 0  Process: /axi4stream_vip_pkg/axi4stream_mst_driver(C_XIL_AXI4STREAM_SIGNAL_SET=8'b01110011,C_XIL_AXI4STREAM_DEST_WIDTH=1,C_XIL_AXI4STREAM_DATA_WIDTH=512,C_XIL_AXI4STREAM_ID_WIDTH=1,C_XIL_AXI4STREAM_HAS_ARESETN=1)::get_and_drive/GET_AND_DRIVE  Scope: axi4stream_vip_pkg.axi4stream_transaction::set_id  File: /home/linuxusr/tools/Vivado/2024.2/data/xilinx_vip/hdl/axi4stream_vip_pkg.sv Line: 495
Warning: [tx] (axi4stream_vip_pkg.axi4stream_transaction::set_dest) 605 ns : Attempted to send DEST (0xdeadbeef) which is wider than dest_width (         1). Truncating DEST to (0x1)
Time: 605001 ps  Iteration: 0  Process: /axi4stream_vip_pkg/axi4stream_mst_driver(C_XIL_AXI4STREAM_SIGNAL_SET=8'b01110011,C_XIL_AXI4STREAM_DEST_WIDTH=1,C_XIL_AXI4STREAM_DATA_WIDTH=512,C_XIL_AXI4STREAM_ID_WIDTH=1,C_XIL_AXI4STREAM_HAS_ARESETN=1)::get_and_drive/GET_AND_DRIVE  Scope: axi4stream_vip_pkg.axi4stream_transaction::set_dest  File: /home/linuxusr/tools/Vivado/2024.2/data/xilinx_vip/hdl/axi4stream_vip_pkg.sv Line: 528
Warning: [tx] (axi4stream_vip_pkg.axi4stream_transaction::set_id) 615 ns : Attempted to send ID (0x12345678) which is wider than id_width (         1). Truncating ID to (0x0)
Time: 615001 ps  Iteration: 0  Process: /axi4stream_vip_pkg/axi4stream_mst_driver(C_XIL_AXI4STREAM_SIGNAL_SET=8'b01110011,C_XIL_AXI4STREAM_DEST_WIDTH=1,C_XIL_AXI4STREAM_DATA_WIDTH=512,C_XIL_AXI4STREAM_ID_WIDTH=1,C_XIL_AXI4STREAM_HAS_ARESETN=1)::get_and_drive/GET_AND_DRIVE  Scope: axi4stream_vip_pkg.axi4stream_transaction::set_id  File: /home/linuxusr/tools/Vivado/2024.2/data/xilinx_vip/hdl/axi4stream_vip_pkg.sv Line: 495
Warning: [tx] (axi4stream_vip_pkg.axi4stream_transaction::set_dest) 615 ns : Attempted to send DEST (0xdeadbeef) which is wider than dest_width (         1). Truncating DEST to (0x1)
Time: 615001 ps  Iteration: 0  Process: /axi4stream_vip_pkg/axi4stream_mst_driver(C_XIL_AXI4STREAM_SIGNAL_SET=8'b01110011,C_XIL_AXI4STREAM_DEST_WIDTH=1,C_XIL_AXI4STREAM_DATA_WIDTH=512,C_XIL_AXI4STREAM_ID_WIDTH=1,C_XIL_AXI4STREAM_HAS_ARESETN=1)::get_and_drive/GET_AND_DRIVE  Scope: axi4stream_vip_pkg.axi4stream_transaction::set_dest  File: /home/linuxusr/tools/Vivado/2024.2/data/xilinx_vip/hdl/axi4stream_vip_pkg.sv Line: 528
Warning: [tx] (axi4stream_vip_pkg.axi4stream_transaction::set_id) 625 ns : Attempted to send ID (0x12345678) which is wider than id_width (         1). Truncating ID to (0x0)
Time: 625001 ps  Iteration: 0  Process: /axi4stream_vip_pkg/axi4stream_mst_driver(C_XIL_AXI4STREAM_SIGNAL_SET=8'b01110011,C_XIL_AXI4STREAM_DEST_WIDTH=1,C_XIL_AXI4STREAM_DATA_WIDTH=512,C_XIL_AXI4STREAM_ID_WIDTH=1,C_XIL_AXI4STREAM_HAS_ARESETN=1)::get_and_drive/GET_AND_DRIVE  Scope: axi4stream_vip_pkg.axi4stream_transaction::set_id  File: /home/linuxusr/tools/Vivado/2024.2/data/xilinx_vip/hdl/axi4stream_vip_pkg.sv Line: 495
Warning: [tx] (axi4stream_vip_pkg.axi4stream_transaction::set_dest) 625 ns : Attempted to send DEST (0xdeadbeef) which is wider than dest_width (         1). Truncating DEST to (0x1)
Time: 625001 ps  Iteration: 0  Process: /axi4stream_vip_pkg/axi4stream_mst_driver(C_XIL_AXI4STREAM_SIGNAL_SET=8'b01110011,C_XIL_AXI4STREAM_DEST_WIDTH=1,C_XIL_AXI4STREAM_DATA_WIDTH=512,C_XIL_AXI4STREAM_ID_WIDTH=1,C_XIL_AXI4STREAM_HAS_ARESETN=1)::get_and_drive/GET_AND_DRIVE  Scope: axi4stream_vip_pkg.axi4stream_transaction::set_dest  File: /home/linuxusr/tools/Vivado/2024.2/data/xilinx_vip/hdl/axi4stream_vip_pkg.sv Line: 528
Warning: [tx] (axi4stream_vip_pkg.axi4stream_transaction::set_id) 635 ns : Attempted to send ID (0x12345678) which is wider than id_width (         1). Truncating ID to (0x0)
Time: 635001 ps  Iteration: 0  Process: /axi4stream_vip_pkg/axi4stream_mst_driver(C_XIL_AXI4STREAM_SIGNAL_SET=8'b01110011,C_XIL_AXI4STREAM_DEST_WIDTH=1,C_XIL_AXI4STREAM_DATA_WIDTH=512,C_XIL_AXI4STREAM_ID_WIDTH=1,C_XIL_AXI4STREAM_HAS_ARESETN=1)::get_and_drive/GET_AND_DRIVE  Scope: axi4stream_vip_pkg.axi4stream_transaction::set_id  File: /home/linuxusr/tools/Vivado/2024.2/data/xilinx_vip/hdl/axi4stream_vip_pkg.sv Line: 495
Warning: [tx] (axi4stream_vip_pkg.axi4stream_transaction::set_dest) 635 ns : Attempted to send DEST (0xdeadbeef) which is wider than dest_width (         1). Truncating DEST to (0x1)
Time: 635001 ps  Iteration: 0  Process: /axi4stream_vip_pkg/axi4stream_mst_driver(C_XIL_AXI4STREAM_SIGNAL_SET=8'b01110011,C_XIL_AXI4STREAM_DEST_WIDTH=1,C_XIL_AXI4STREAM_DATA_WIDTH=512,C_XIL_AXI4STREAM_ID_WIDTH=1,C_XIL_AXI4STREAM_HAS_ARESETN=1)::get_and_drive/GET_AND_DRIVE  Scope: axi4stream_vip_pkg.axi4stream_transaction::set_dest  File: /home/linuxusr/tools/Vivado/2024.2/data/xilinx_vip/hdl/axi4stream_vip_pkg.sv Line: 528
Warning: [tx] (axi4stream_vip_pkg.axi4stream_transaction::set_id) 645 ns : Attempted to send ID (0x12345678) which is wider than id_width (         1). Truncating ID to (0x0)
Time: 645001 ps  Iteration: 0  Process: /axi4stream_vip_pkg/axi4stream_mst_driver(C_XIL_AXI4STREAM_SIGNAL_SET=8'b01110011,C_XIL_AXI4STREAM_DEST_WIDTH=1,C_XIL_AXI4STREAM_DATA_WIDTH=512,C_XIL_AXI4STREAM_ID_WIDTH=1,C_XIL_AXI4STREAM_HAS_ARESETN=1)::get_and_drive/GET_AND_DRIVE  Scope: axi4stream_vip_pkg.axi4stream_transaction::set_id  File: /home/linuxusr/tools/Vivado/2024.2/data/xilinx_vip/hdl/axi4stream_vip_pkg.sv Line: 495
Warning: [tx] (axi4stream_vip_pkg.axi4stream_transaction::set_dest) 645 ns : Attempted to send DEST (0xdeadbeef) which is wider than dest_width (         1). Truncating DEST to (0x1)
Time: 645001 ps  Iteration: 0  Process: /axi4stream_vip_pkg/axi4stream_mst_driver(C_XIL_AXI4STREAM_SIGNAL_SET=8'b01110011,C_XIL_AXI4STREAM_DEST_WIDTH=1,C_XIL_AXI4STREAM_DATA_WIDTH=512,C_XIL_AXI4STREAM_ID_WIDTH=1,C_XIL_AXI4STREAM_HAS_ARESETN=1)::get_and_drive/GET_AND_DRIVE  Scope: axi4stream_vip_pkg.axi4stream_transaction::set_dest  File: /home/linuxusr/tools/Vivado/2024.2/data/xilinx_vip/hdl/axi4stream_vip_pkg.sv Line: 528
Warning: [tx] (axi4stream_vip_pkg.axi4stream_transaction::set_id) 655 ns : Attempted to send ID (0x12345678) which is wider than id_width (         1). Truncating ID to (0x0)
Time: 655001 ps  Iteration: 0  Process: /axi4stream_vip_pkg/axi4stream_mst_driver(C_XIL_AXI4STREAM_SIGNAL_SET=8'b01110011,C_XIL_AXI4STREAM_DEST_WIDTH=1,C_XIL_AXI4STREAM_DATA_WIDTH=512,C_XIL_AXI4STREAM_ID_WIDTH=1,C_XIL_AXI4STREAM_HAS_ARESETN=1)::get_and_drive/GET_AND_DRIVE  Scope: axi4stream_vip_pkg.axi4stream_transaction::set_id  File: /home/linuxusr/tools/Vivado/2024.2/data/xilinx_vip/hdl/axi4stream_vip_pkg.sv Line: 495
Warning: [tx] (axi4stream_vip_pkg.axi4stream_transaction::set_dest) 655 ns : Attempted to send DEST (0xdeadbeef) which is wider than dest_width (         1). Truncating DEST to (0x1)
Time: 655001 ps  Iteration: 0  Process: /axi4stream_vip_pkg/axi4stream_mst_driver(C_XIL_AXI4STREAM_SIGNAL_SET=8'b01110011,C_XIL_AXI4STREAM_DEST_WIDTH=1,C_XIL_AXI4STREAM_DATA_WIDTH=512,C_XIL_AXI4STREAM_ID_WIDTH=1,C_XIL_AXI4STREAM_HAS_ARESETN=1)::get_and_drive/GET_AND_DRIVE  Scope: axi4stream_vip_pkg.axi4stream_transaction::set_dest  File: /home/linuxusr/tools/Vivado/2024.2/data/xilinx_vip/hdl/axi4stream_vip_pkg.sv Line: 528
[AXIS SEND] with continuous valid : all beats send 완료
[LITE READ]  addr=0x04 data=0x00000009
[LITE READ]  addr=0x04 data=0x00000009
[DUT_FSM] t=735 ns ns  STORE       (status=9)
[DUT_FSM] t=745 ns ns  WAIT_ITER2  (status=1)
[LITE READ]  addr=0x04 data=0x00000009
[LITE READ]  addr=0x04 data=0x00000001
>>> ITER1 완료,WAIT_ITER2 
[DUT_FSM] t=855 ns ns  ITER2       (status=2)
[LITE WRITE] addr=0x00 data=0x00000002 resp=0
Warning: [tx] (axi4stream_vip_pkg.axi4stream_transaction::set_id) 855 ns : Attempted to send ID (0x12345678) which is wider than id_width (         1). Truncating ID to (0x0)
Time: 855001 ps  Iteration: 0  Process: /axi4stream_vip_pkg/axi4stream_mst_driver(C_XIL_AXI4STREAM_SIGNAL_SET=8'b01110011,C_XIL_AXI4STREAM_DEST_WIDTH=1,C_XIL_AXI4STREAM_DATA_WIDTH=512,C_XIL_AXI4STREAM_ID_WIDTH=1,C_XIL_AXI4STREAM_HAS_ARESETN=1)::get_and_drive/GET_AND_DRIVE  Scope: axi4stream_vip_pkg.axi4stream_transaction::set_id  File: /home/linuxusr/tools/Vivado/2024.2/data/xilinx_vip/hdl/axi4stream_vip_pkg.sv Line: 495
Warning: [tx] (axi4stream_vip_pkg.axi4stream_transaction::set_dest) 855 ns : Attempted to send DEST (0xdeadbeef) which is wider than dest_width (         1). Truncating DEST to (0x1)
Time: 855001 ps  Iteration: 0  Process: /axi4stream_vip_pkg/axi4stream_mst_driver(C_XIL_AXI4STREAM_SIGNAL_SET=8'b01110011,C_XIL_AXI4STREAM_DEST_WIDTH=1,C_XIL_AXI4STREAM_DATA_WIDTH=512,C_XIL_AXI4STREAM_ID_WIDTH=1,C_XIL_AXI4STREAM_HAS_ARESETN=1)::get_and_drive/GET_AND_DRIVE  Scope: axi4stream_vip_pkg.axi4stream_transaction::set_dest  File: /home/linuxusr/tools/Vivado/2024.2/data/xilinx_vip/hdl/axi4stream_vip_pkg.sv Line: 528
Warning: [tx] (axi4stream_vip_pkg.axi4stream_transaction::set_id) 865 ns : Attempted to send ID (0x12345678) which is wider than id_width (         1). Truncating ID to (0x0)
Time: 865001 ps  Iteration: 0  Process: /axi4stream_vip_pkg/axi4stream_mst_driver(C_XIL_AXI4STREAM_SIGNAL_SET=8'b01110011,C_XIL_AXI4STREAM_DEST_WIDTH=1,C_XIL_AXI4STREAM_DATA_WIDTH=512,C_XIL_AXI4STREAM_ID_WIDTH=1,C_XIL_AXI4STREAM_HAS_ARESETN=1)::get_and_drive/GET_AND_DRIVE  Scope: axi4stream_vip_pkg.axi4stream_transaction::set_id  File: /home/linuxusr/tools/Vivado/2024.2/data/xilinx_vip/hdl/axi4stream_vip_pkg.sv Line: 495
Warning: [tx] (axi4stream_vip_pkg.axi4stream_transaction::set_dest) 865 ns : Attempted to send DEST (0xdeadbeef) which is wider than dest_width (         1). Truncating DEST to (0x1)
Time: 865001 ps  Iteration: 0  Process: /axi4stream_vip_pkg/axi4stream_mst_driver(C_XIL_AXI4STREAM_SIGNAL_SET=8'b01110011,C_XIL_AXI4STREAM_DEST_WIDTH=1,C_XIL_AXI4STREAM_DATA_WIDTH=512,C_XIL_AXI4STREAM_ID_WIDTH=1,C_XIL_AXI4STREAM_HAS_ARESETN=1)::get_and_drive/GET_AND_DRIVE  Scope: axi4stream_vip_pkg.axi4stream_transaction::set_dest  File: /home/linuxusr/tools/Vivado/2024.2/data/xilinx_vip/hdl/axi4stream_vip_pkg.sv Line: 528
[OUT] first row data[15:0] in 32row =0000 , tlast=0
Warning: [tx] (axi4stream_vip_pkg.axi4stream_transaction::set_id) 875 ns : Attempted to send ID (0x12345678) which is wider than id_width (         1). Truncating ID to (0x0)
Time: 875001 ps  Iteration: 0  Process: /axi4stream_vip_pkg/axi4stream_mst_driver(C_XIL_AXI4STREAM_SIGNAL_SET=8'b01110011,C_XIL_AXI4STREAM_DEST_WIDTH=1,C_XIL_AXI4STREAM_DATA_WIDTH=512,C_XIL_AXI4STREAM_ID_WIDTH=1,C_XIL_AXI4STREAM_HAS_ARESETN=1)::get_and_drive/GET_AND_DRIVE  Scope: axi4stream_vip_pkg.axi4stream_transaction::set_id  File: /home/linuxusr/tools/Vivado/2024.2/data/xilinx_vip/hdl/axi4stream_vip_pkg.sv Line: 495
Warning: [tx] (axi4stream_vip_pkg.axi4stream_transaction::set_dest) 875 ns : Attempted to send DEST (0xdeadbeef) which is wider than dest_width (         1). Truncating DEST to (0x1)
Time: 875001 ps  Iteration: 0  Process: /axi4stream_vip_pkg/axi4stream_mst_driver(C_XIL_AXI4STREAM_SIGNAL_SET=8'b01110011,C_XIL_AXI4STREAM_DEST_WIDTH=1,C_XIL_AXI4STREAM_DATA_WIDTH=512,C_XIL_AXI4STREAM_ID_WIDTH=1,C_XIL_AXI4STREAM_HAS_ARESETN=1)::get_and_drive/GET_AND_DRIVE  Scope: axi4stream_vip_pkg.axi4stream_transaction::set_dest  File: /home/linuxusr/tools/Vivado/2024.2/data/xilinx_vip/hdl/axi4stream_vip_pkg.sv Line: 528
Warning: [tx] (axi4stream_vip_pkg.axi4stream_transaction::set_id) 885 ns : Attempted to send ID (0x12345678) which is wider than id_width (         1). Truncating ID to (0x0)
Time: 885001 ps  Iteration: 0  Process: /axi4stream_vip_pkg/axi4stream_mst_driver(C_XIL_AXI4STREAM_SIGNAL_SET=8'b01110011,C_XIL_AXI4STREAM_DEST_WIDTH=1,C_XIL_AXI4STREAM_DATA_WIDTH=512,C_XIL_AXI4STREAM_ID_WIDTH=1,C_XIL_AXI4STREAM_HAS_ARESETN=1)::get_and_drive/GET_AND_DRIVE  Scope: axi4stream_vip_pkg.axi4stream_transaction::set_id  File: /home/linuxusr/tools/Vivado/2024.2/data/xilinx_vip/hdl/axi4stream_vip_pkg.sv Line: 495
Warning: [tx] (axi4stream_vip_pkg.axi4stream_transaction::set_dest) 885 ns : Attempted to send DEST (0xdeadbeef) which is wider than dest_width (         1). Truncating DEST to (0x1)
Time: 885001 ps  Iteration: 0  Process: /axi4stream_vip_pkg/axi4stream_mst_driver(C_XIL_AXI4STREAM_SIGNAL_SET=8'b01110011,C_XIL_AXI4STREAM_DEST_WIDTH=1,C_XIL_AXI4STREAM_DATA_WIDTH=512,C_XIL_AXI4STREAM_ID_WIDTH=1,C_XIL_AXI4STREAM_HAS_ARESETN=1)::get_and_drive/GET_AND_DRIVE  Scope: axi4stream_vip_pkg.axi4stream_transaction::set_dest  File: /home/linuxusr/tools/Vivado/2024.2/data/xilinx_vip/hdl/axi4stream_vip_pkg.sv Line: 528
Warning: [tx] (axi4stream_vip_pkg.axi4stream_transaction::set_id) 895 ns : Attempted to send ID (0x12345678) which is wider than id_width (         1). Truncating ID to (0x0)
Time: 895001 ps  Iteration: 0  Process: /axi4stream_vip_pkg/axi4stream_mst_driver(C_XIL_AXI4STREAM_SIGNAL_SET=8'b01110011,C_XIL_AXI4STREAM_DEST_WIDTH=1,C_XIL_AXI4STREAM_DATA_WIDTH=512,C_XIL_AXI4STREAM_ID_WIDTH=1,C_XIL_AXI4STREAM_HAS_ARESETN=1)::get_and_drive/GET_AND_DRIVE  Scope: axi4stream_vip_pkg.axi4stream_transaction::set_id  File: /home/linuxusr/tools/Vivado/2024.2/data/xilinx_vip/hdl/axi4stream_vip_pkg.sv Line: 495
Warning: [tx] (axi4stream_vip_pkg.axi4stream_transaction::set_dest) 895 ns : Attempted to send DEST (0xdeadbeef) which is wider than dest_width (         1). Truncating DEST to (0x1)
Time: 895001 ps  Iteration: 0  Process: /axi4stream_vip_pkg/axi4stream_mst_driver(C_XIL_AXI4STREAM_SIGNAL_SET=8'b01110011,C_XIL_AXI4STREAM_DEST_WIDTH=1,C_XIL_AXI4STREAM_DATA_WIDTH=512,C_XIL_AXI4STREAM_ID_WIDTH=1,C_XIL_AXI4STREAM_HAS_ARESETN=1)::get_and_drive/GET_AND_DRIVE  Scope: axi4stream_vip_pkg.axi4stream_transaction::set_dest  File: /home/linuxusr/tools/Vivado/2024.2/data/xilinx_vip/hdl/axi4stream_vip_pkg.sv Line: 528
[OUT] first row data[15:0] in 32row =0000 , tlast=0
Warning: [tx] (axi4stream_vip_pkg.axi4stream_transaction::set_id) 905 ns : Attempted to send ID (0x12345678) which is wider than id_width (         1). Truncating ID to (0x0)
Time: 905001 ps  Iteration: 0  Process: /axi4stream_vip_pkg/axi4stream_mst_driver(C_XIL_AXI4STREAM_SIGNAL_SET=8'b01110011,C_XIL_AXI4STREAM_DEST_WIDTH=1,C_XIL_AXI4STREAM_DATA_WIDTH=512,C_XIL_AXI4STREAM_ID_WIDTH=1,C_XIL_AXI4STREAM_HAS_ARESETN=1)::get_and_drive/GET_AND_DRIVE  Scope: axi4stream_vip_pkg.axi4stream_transaction::set_id  File: /home/linuxusr/tools/Vivado/2024.2/data/xilinx_vip/hdl/axi4stream_vip_pkg.sv Line: 495
Warning: [tx] (axi4stream_vip_pkg.axi4stream_transaction::set_dest) 905 ns : Attempted to send DEST (0xdeadbeef) which is wider than dest_width (         1). Truncating DEST to (0x1)
Time: 905001 ps  Iteration: 0  Process: /axi4stream_vip_pkg/axi4stream_mst_driver(C_XIL_AXI4STREAM_SIGNAL_SET=8'b01110011,C_XIL_AXI4STREAM_DEST_WIDTH=1,C_XIL_AXI4STREAM_DATA_WIDTH=512,C_XIL_AXI4STREAM_ID_WIDTH=1,C_XIL_AXI4STREAM_HAS_ARESETN=1)::get_and_drive/GET_AND_DRIVE  Scope: axi4stream_vip_pkg.axi4stream_transaction::set_dest  File: /home/linuxusr/tools/Vivado/2024.2/data/xilinx_vip/hdl/axi4stream_vip_pkg.sv Line: 528
Warning: [tx] (axi4stream_vip_pkg.axi4stream_transaction::set_id) 915 ns : Attempted to send ID (0x12345678) which is wider than id_width (         1). Truncating ID to (0x0)
Time: 915001 ps  Iteration: 0  Process: /axi4stream_vip_pkg/axi4stream_mst_driver(C_XIL_AXI4STREAM_SIGNAL_SET=8'b01110011,C_XIL_AXI4STREAM_DEST_WIDTH=1,C_XIL_AXI4STREAM_DATA_WIDTH=512,C_XIL_AXI4STREAM_ID_WIDTH=1,C_XIL_AXI4STREAM_HAS_ARESETN=1)::get_and_drive/GET_AND_DRIVE  Scope: axi4stream_vip_pkg.axi4stream_transaction::set_id  File: /home/linuxusr/tools/Vivado/2024.2/data/xilinx_vip/hdl/axi4stream_vip_pkg.sv Line: 495
Warning: [tx] (axi4stream_vip_pkg.axi4stream_transaction::set_dest) 915 ns : Attempted to send DEST (0xdeadbeef) which is wider than dest_width (         1). Truncating DEST to (0x1)
Time: 915001 ps  Iteration: 0  Process: /axi4stream_vip_pkg/axi4stream_mst_driver(C_XIL_AXI4STREAM_SIGNAL_SET=8'b01110011,C_XIL_AXI4STREAM_DEST_WIDTH=1,C_XIL_AXI4STREAM_DATA_WIDTH=512,C_XIL_AXI4STREAM_ID_WIDTH=1,C_XIL_AXI4STREAM_HAS_ARESETN=1)::get_and_drive/GET_AND_DRIVE  Scope: axi4stream_vip_pkg.axi4stream_transaction::set_dest  File: /home/linuxusr/tools/Vivado/2024.2/data/xilinx_vip/hdl/axi4stream_vip_pkg.sv Line: 528
Warning: [tx] (axi4stream_vip_pkg.axi4stream_transaction::set_id) 925 ns : Attempted to send ID (0x12345678) which is wider than id_width (         1). Truncating ID to (0x0)
Time: 925001 ps  Iteration: 0  Process: /axi4stream_vip_pkg/axi4stream_mst_driver(C_XIL_AXI4STREAM_SIGNAL_SET=8'b01110011,C_XIL_AXI4STREAM_DEST_WIDTH=1,C_XIL_AXI4STREAM_DATA_WIDTH=512,C_XIL_AXI4STREAM_ID_WIDTH=1,C_XIL_AXI4STREAM_HAS_ARESETN=1)::get_and_drive/GET_AND_DRIVE  Scope: axi4stream_vip_pkg.axi4stream_transaction::set_id  File: /home/linuxusr/tools/Vivado/2024.2/data/xilinx_vip/hdl/axi4stream_vip_pkg.sv Line: 495
Warning: [tx] (axi4stream_vip_pkg.axi4stream_transaction::set_dest) 925 ns : Attempted to send DEST (0xdeadbeef) which is wider than dest_width (         1). Truncating DEST to (0x1)
Time: 925001 ps  Iteration: 0  Process: /axi4stream_vip_pkg/axi4stream_mst_driver(C_XIL_AXI4STREAM_SIGNAL_SET=8'b01110011,C_XIL_AXI4STREAM_DEST_WIDTH=1,C_XIL_AXI4STREAM_DATA_WIDTH=512,C_XIL_AXI4STREAM_ID_WIDTH=1,C_XIL_AXI4STREAM_HAS_ARESETN=1)::get_and_drive/GET_AND_DRIVE  Scope: axi4stream_vip_pkg.axi4stream_transaction::set_dest  File: /home/linuxusr/tools/Vivado/2024.2/data/xilinx_vip/hdl/axi4stream_vip_pkg.sv Line: 528
[OUT] first row data[15:0] in 32row =0000 , tlast=0
Warning: [tx] (axi4stream_vip_pkg.axi4stream_transaction::set_id) 935 ns : Attempted to send ID (0x12345678) which is wider than id_width (         1). Truncating ID to (0x0)
Time: 935001 ps  Iteration: 0  Process: /axi4stream_vip_pkg/axi4stream_mst_driver(C_XIL_AXI4STREAM_SIGNAL_SET=8'b01110011,C_XIL_AXI4STREAM_DEST_WIDTH=1,C_XIL_AXI4STREAM_DATA_WIDTH=512,C_XIL_AXI4STREAM_ID_WIDTH=1,C_XIL_AXI4STREAM_HAS_ARESETN=1)::get_and_drive/GET_AND_DRIVE  Scope: axi4stream_vip_pkg.axi4stream_transaction::set_id  File: /home/linuxusr/tools/Vivado/2024.2/data/xilinx_vip/hdl/axi4stream_vip_pkg.sv Line: 495
Warning: [tx] (axi4stream_vip_pkg.axi4stream_transaction::set_dest) 935 ns : Attempted to send DEST (0xdeadbeef) which is wider than dest_width (         1). Truncating DEST to (0x1)
Time: 935001 ps  Iteration: 0  Process: /axi4stream_vip_pkg/axi4stream_mst_driver(C_XIL_AXI4STREAM_SIGNAL_SET=8'b01110011,C_XIL_AXI4STREAM_DEST_WIDTH=1,C_XIL_AXI4STREAM_DATA_WIDTH=512,C_XIL_AXI4STREAM_ID_WIDTH=1,C_XIL_AXI4STREAM_HAS_ARESETN=1)::get_and_drive/GET_AND_DRIVE  Scope: axi4stream_vip_pkg.axi4stream_transaction::set_dest  File: /home/linuxusr/tools/Vivado/2024.2/data/xilinx_vip/hdl/axi4stream_vip_pkg.sv Line: 528
Warning: [tx] (axi4stream_vip_pkg.axi4stream_transaction::set_id) 945 ns : Attempted to send ID (0x12345678) which is wider than id_width (         1). Truncating ID to (0x0)
Time: 945001 ps  Iteration: 0  Process: /axi4stream_vip_pkg/axi4stream_mst_driver(C_XIL_AXI4STREAM_SIGNAL_SET=8'b01110011,C_XIL_AXI4STREAM_DEST_WIDTH=1,C_XIL_AXI4STREAM_DATA_WIDTH=512,C_XIL_AXI4STREAM_ID_WIDTH=1,C_XIL_AXI4STREAM_HAS_ARESETN=1)::get_and_drive/GET_AND_DRIVE  Scope: axi4stream_vip_pkg.axi4stream_transaction::set_id  File: /home/linuxusr/tools/Vivado/2024.2/data/xilinx_vip/hdl/axi4stream_vip_pkg.sv Line: 495
Warning: [tx] (axi4stream_vip_pkg.axi4stream_transaction::set_dest) 945 ns : Attempted to send DEST (0xdeadbeef) which is wider than dest_width (         1). Truncating DEST to (0x1)
Time: 945001 ps  Iteration: 0  Process: /axi4stream_vip_pkg/axi4stream_mst_driver(C_XIL_AXI4STREAM_SIGNAL_SET=8'b01110011,C_XIL_AXI4STREAM_DEST_WIDTH=1,C_XIL_AXI4STREAM_DATA_WIDTH=512,C_XIL_AXI4STREAM_ID_WIDTH=1,C_XIL_AXI4STREAM_HAS_ARESETN=1)::get_and_drive/GET_AND_DRIVE  Scope: axi4stream_vip_pkg.axi4stream_transaction::set_dest  File: /home/linuxusr/tools/Vivado/2024.2/data/xilinx_vip/hdl/axi4stream_vip_pkg.sv Line: 528
[AXIS SEND] with continuous valid : all beats send 완료

Time: 955 ns Started: 945 ns Scope: /tb_layernorm_axi_wrapper/u_axis_slv/inst/IF/PC File: /home/linuxusr/tools/Vivado/2024.2/data/xilinx_vip/hdl/axi4stream_vip_axi4streampc.sv Line:507
Fatal: AXI4STREAM_ERRM_TLAST_STABLE. TLAST must remain stable when TVALID is asserted and TREADY low. Spec: section 2.2.1, and figure 2-1, on page 2-3.
Time: 955 ns  Iteration: 0  Process: /tb_layernorm_axi_wrapper/u_axis_slv/inst/IF/PC//tb_layernorm_axi_wrapper/u_axis_slv/inst/IF/PC  Scope: tb_layernorm_axi_wrapper.u_axis_slv.inst.IF.PC.arm_amba4_pc_msg_err  File: /home/linuxusr/tools/Vivado/2024.2/data/xilinx_vip/hdl/axi4stream_vip_axi4streampc.sv Line: 311
$finish called at time : 955 ns
XilinxAXIVIP: Found at Path: tb_layernorm_axi_wrapper.u_lite_mst.inst
Xilinx AXI4STREAM VIP Found at Path: tb_layernorm_axi_wrapper.u_axis_mst.inst
Xilinx AXI4STREAM VIP Found at Path: tb_layernorm_axi_wrapper.u_axis_slv.inst
[DUT_FSM] t=5 ns ns  IDLE        (status=0)
[LITE WRITE] addr=0x08 data=0x0000000a resp=0
[LITE WRITE] addr=0x0c data=0x00000855 resp=0
[DUT_FSM] t=565 ns ns  ITER1       (status=9)
[LITE WRITE] addr=0x00 data=0x00000001 resp=0
Warning: [tx] (axi4stream_vip_pkg.axi4stream_transaction::set_id) 565 ns : Attempted to send ID (0x12345678) which is wider than id_width (         1). Truncating ID to (0x0)
Time: 565001 ps  Iteration: 0  Process: /axi4stream_vip_pkg/axi4stream_mst_driver(C_XIL_AXI4STREAM_SIGNAL_SET=8'b01110011,C_XIL_AXI4STREAM_DEST_WIDTH=1,C_XIL_AXI4STREAM_DATA_WIDTH=512,C_XIL_AXI4STREAM_ID_WIDTH=1,C_XIL_AXI4STREAM_HAS_ARESETN=1)::get_and_drive/GET_AND_DRIVE  Scope: axi4stream_vip_pkg.axi4stream_transaction::set_id  File: /home/linuxusr/tools/Vivado/2024.2/data/xilinx_vip/hdl/axi4stream_vip_pkg.sv Line: 495
Warning: [tx] (axi4stream_vip_pkg.axi4stream_transaction::set_dest) 565 ns : Attempted to send DEST (0xdeadbeef) which is wider than dest_width (         1). Truncating DEST to (0x1)
Time: 565001 ps  Iteration: 0  Process: /axi4stream_vip_pkg/axi4stream_mst_driver(C_XIL_AXI4STREAM_SIGNAL_SET=8'b01110011,C_XIL_AXI4STREAM_DEST_WIDTH=1,C_XIL_AXI4STREAM_DATA_WIDTH=512,C_XIL_AXI4STREAM_ID_WIDTH=1,C_XIL_AXI4STREAM_HAS_ARESETN=1)::get_and_drive/GET_AND_DRIVE  Scope: axi4stream_vip_pkg.axi4stream_transaction::set_dest  File: /home/linuxusr/tools/Vivado/2024.2/data/xilinx_vip/hdl/axi4stream_vip_pkg.sv Line: 528
Warning: [tx] (axi4stream_vip_pkg.axi4stream_transaction::set_id) 575 ns : Attempted to send ID (0x12345678) which is wider than id_width (         1). Truncating ID to (0x0)
Time: 575001 ps  Iteration: 0  Process: /axi4stream_vip_pkg/axi4stream_mst_driver(C_XIL_AXI4STREAM_SIGNAL_SET=8'b01110011,C_XIL_AXI4STREAM_DEST_WIDTH=1,C_XIL_AXI4STREAM_DATA_WIDTH=512,C_XIL_AXI4STREAM_ID_WIDTH=1,C_XIL_AXI4STREAM_HAS_ARESETN=1)::get_and_drive/GET_AND_DRIVE  Scope: axi4stream_vip_pkg.axi4stream_transaction::set_id  File: /home/linuxusr/tools/Vivado/2024.2/data/xilinx_vip/hdl/axi4stream_vip_pkg.sv Line: 495
Warning: [tx] (axi4stream_vip_pkg.axi4stream_transaction::set_dest) 575 ns : Attempted to send DEST (0xdeadbeef) which is wider than dest_width (         1). Truncating DEST to (0x1)
Time: 575001 ps  Iteration: 0  Process: /axi4stream_vip_pkg/axi4stream_mst_driver(C_XIL_AXI4STREAM_SIGNAL_SET=8'b01110011,C_XIL_AXI4STREAM_DEST_WIDTH=1,C_XIL_AXI4STREAM_DATA_WIDTH=512,C_XIL_AXI4STREAM_ID_WIDTH=1,C_XIL_AXI4STREAM_HAS_ARESETN=1)::get_and_drive/GET_AND_DRIVE  Scope: axi4stream_vip_pkg.axi4stream_transaction::set_dest  File: /home/linuxusr/tools/Vivado/2024.2/data/xilinx_vip/hdl/axi4stream_vip_pkg.sv Line: 528
Warning: [tx] (axi4stream_vip_pkg.axi4stream_transaction::set_id) 585 ns : Attempted to send ID (0x12345678) which is wider than id_width (         1). Truncating ID to (0x0)
Time: 585001 ps  Iteration: 0  Process: /axi4stream_vip_pkg/axi4stream_mst_driver(C_XIL_AXI4STREAM_SIGNAL_SET=8'b01110011,C_XIL_AXI4STREAM_DEST_WIDTH=1,C_XIL_AXI4STREAM_DATA_WIDTH=512,C_XIL_AXI4STREAM_ID_WIDTH=1,C_XIL_AXI4STREAM_HAS_ARESETN=1)::get_and_drive/GET_AND_DRIVE  Scope: axi4stream_vip_pkg.axi4stream_transaction::set_id  File: /home/linuxusr/tools/Vivado/2024.2/data/xilinx_vip/hdl/axi4stream_vip_pkg.sv Line: 495
Warning: [tx] (axi4stream_vip_pkg.axi4stream_transaction::set_dest) 585 ns : Attempted to send DEST (0xdeadbeef) which is wider than dest_width (         1). Truncating DEST to (0x1)
Time: 585001 ps  Iteration: 0  Process: /axi4stream_vip_pkg/axi4stream_mst_driver(C_XIL_AXI4STREAM_SIGNAL_SET=8'b01110011,C_XIL_AXI4STREAM_DEST_WIDTH=1,C_XIL_AXI4STREAM_DATA_WIDTH=512,C_XIL_AXI4STREAM_ID_WIDTH=1,C_XIL_AXI4STREAM_HAS_ARESETN=1)::get_and_drive/GET_AND_DRIVE  Scope: axi4stream_vip_pkg.axi4stream_transaction::set_dest  File: /home/linuxusr/tools/Vivado/2024.2/data/xilinx_vip/hdl/axi4stream_vip_pkg.sv Line: 528
Warning: [tx] (axi4stream_vip_pkg.axi4stream_transaction::set_id) 595 ns : Attempted to send ID (0x12345678) which is wider than id_width (         1). Truncating ID to (0x0)
Time: 595001 ps  Iteration: 0  Process: /axi4stream_vip_pkg/axi4stream_mst_driver(C_XIL_AXI4STREAM_SIGNAL_SET=8'b01110011,C_XIL_AXI4STREAM_DEST_WIDTH=1,C_XIL_AXI4STREAM_DATA_WIDTH=512,C_XIL_AXI4STREAM_ID_WIDTH=1,C_XIL_AXI4STREAM_HAS_ARESETN=1)::get_and_drive/GET_AND_DRIVE  Scope: axi4stream_vip_pkg.axi4stream_transaction::set_id  File: /home/linuxusr/tools/Vivado/2024.2/data/xilinx_vip/hdl/axi4stream_vip_pkg.sv Line: 495
Warning: [tx] (axi4stream_vip_pkg.axi4stream_transaction::set_dest) 595 ns : Attempted to send DEST (0xdeadbeef) which is wider than dest_width (         1). Truncating DEST to (0x1)
Time: 595001 ps  Iteration: 0  Process: /axi4stream_vip_pkg/axi4stream_mst_driver(C_XIL_AXI4STREAM_SIGNAL_SET=8'b01110011,C_XIL_AXI4STREAM_DEST_WIDTH=1,C_XIL_AXI4STREAM_DATA_WIDTH=512,C_XIL_AXI4STREAM_ID_WIDTH=1,C_XIL_AXI4STREAM_HAS_ARESETN=1)::get_and_drive/GET_AND_DRIVE  Scope: axi4stream_vip_pkg.axi4stream_transaction::set_dest  File: /home/linuxusr/tools/Vivado/2024.2/data/xilinx_vip/hdl/axi4stream_vip_pkg.sv Line: 528
Warning: [tx] (axi4stream_vip_pkg.axi4stream_transaction::set_id) 605 ns : Attempted to send ID (0x12345678) which is wider than id_width (         1). Truncating ID to (0x0)
Time: 605001 ps  Iteration: 0  Process: /axi4stream_vip_pkg/axi4stream_mst_driver(C_XIL_AXI4STREAM_SIGNAL_SET=8'b01110011,C_XIL_AXI4STREAM_DEST_WIDTH=1,C_XIL_AXI4STREAM_DATA_WIDTH=512,C_XIL_AXI4STREAM_ID_WIDTH=1,C_XIL_AXI4STREAM_HAS_ARESETN=1)::get_and_drive/GET_AND_DRIVE  Scope: axi4stream_vip_pkg.axi4stream_transaction::set_id  File: /home/linuxusr/tools/Vivado/2024.2/data/xilinx_vip/hdl/axi4stream_vip_pkg.sv Line: 495
Warning: [tx] (axi4stream_vip_pkg.axi4stream_transaction::set_dest) 605 ns : Attempted to send DEST (0xdeadbeef) which is wider than dest_width (         1). Truncating DEST to (0x1)
Time: 605001 ps  Iteration: 0  Process: /axi4stream_vip_pkg/axi4stream_mst_driver(C_XIL_AXI4STREAM_SIGNAL_SET=8'b01110011,C_XIL_AXI4STREAM_DEST_WIDTH=1,C_XIL_AXI4STREAM_DATA_WIDTH=512,C_XIL_AXI4STREAM_ID_WIDTH=1,C_XIL_AXI4STREAM_HAS_ARESETN=1)::get_and_drive/GET_AND_DRIVE  Scope: axi4stream_vip_pkg.axi4stream_transaction::set_dest  File: /home/linuxusr/tools/Vivado/2024.2/data/xilinx_vip/hdl/axi4stream_vip_pkg.sv Line: 528
Warning: [tx] (axi4stream_vip_pkg.axi4stream_transaction::set_id) 615 ns : Attempted to send ID (0x12345678) which is wider than id_width (         1). Truncating ID to (0x0)
Time: 615001 ps  Iteration: 0  Process: /axi4stream_vip_pkg/axi4stream_mst_driver(C_XIL_AXI4STREAM_SIGNAL_SET=8'b01110011,C_XIL_AXI4STREAM_DEST_WIDTH=1,C_XIL_AXI4STREAM_DATA_WIDTH=512,C_XIL_AXI4STREAM_ID_WIDTH=1,C_XIL_AXI4STREAM_HAS_ARESETN=1)::get_and_drive/GET_AND_DRIVE  Scope: axi4stream_vip_pkg.axi4stream_transaction::set_id  File: /home/linuxusr/tools/Vivado/2024.2/data/xilinx_vip/hdl/axi4stream_vip_pkg.sv Line: 495
Warning: [tx] (axi4stream_vip_pkg.axi4stream_transaction::set_dest) 615 ns : Attempted to send DEST (0xdeadbeef) which is wider than dest_width (         1). Truncating DEST to (0x1)
Time: 615001 ps  Iteration: 0  Process: /axi4stream_vip_pkg/axi4stream_mst_driver(C_XIL_AXI4STREAM_SIGNAL_SET=8'b01110011,C_XIL_AXI4STREAM_DEST_WIDTH=1,C_XIL_AXI4STREAM_DATA_WIDTH=512,C_XIL_AXI4STREAM_ID_WIDTH=1,C_XIL_AXI4STREAM_HAS_ARESETN=1)::get_and_drive/GET_AND_DRIVE  Scope: axi4stream_vip_pkg.axi4stream_transaction::set_dest  File: /home/linuxusr/tools/Vivado/2024.2/data/xilinx_vip/hdl/axi4stream_vip_pkg.sv Line: 528
Warning: [tx] (axi4stream_vip_pkg.axi4stream_transaction::set_id) 625 ns : Attempted to send ID (0x12345678) which is wider than id_width (         1). Truncating ID to (0x0)
Time: 625001 ps  Iteration: 0  Process: /axi4stream_vip_pkg/axi4stream_mst_driver(C_XIL_AXI4STREAM_SIGNAL_SET=8'b01110011,C_XIL_AXI4STREAM_DEST_WIDTH=1,C_XIL_AXI4STREAM_DATA_WIDTH=512,C_XIL_AXI4STREAM_ID_WIDTH=1,C_XIL_AXI4STREAM_HAS_ARESETN=1)::get_and_drive/GET_AND_DRIVE  Scope: axi4stream_vip_pkg.axi4stream_transaction::set_id  File: /home/linuxusr/tools/Vivado/2024.2/data/xilinx_vip/hdl/axi4stream_vip_pkg.sv Line: 495
Warning: [tx] (axi4stream_vip_pkg.axi4stream_transaction::set_dest) 625 ns : Attempted to send DEST (0xdeadbeef) which is wider than dest_width (         1). Truncating DEST to (0x1)
Time: 625001 ps  Iteration: 0  Process: /axi4stream_vip_pkg/axi4stream_mst_driver(C_XIL_AXI4STREAM_SIGNAL_SET=8'b01110011,C_XIL_AXI4STREAM_DEST_WIDTH=1,C_XIL_AXI4STREAM_DATA_WIDTH=512,C_XIL_AXI4STREAM_ID_WIDTH=1,C_XIL_AXI4STREAM_HAS_ARESETN=1)::get_and_drive/GET_AND_DRIVE  Scope: axi4stream_vip_pkg.axi4stream_transaction::set_dest  File: /home/linuxusr/tools/Vivado/2024.2/data/xilinx_vip/hdl/axi4stream_vip_pkg.sv Line: 528
Warning: [tx] (axi4stream_vip_pkg.axi4stream_transaction::set_id) 635 ns : Attempted to send ID (0x12345678) which is wider than id_width (         1). Truncating ID to (0x0)
Time: 635001 ps  Iteration: 0  Process: /axi4stream_vip_pkg/axi4stream_mst_driver(C_XIL_AXI4STREAM_SIGNAL_SET=8'b01110011,C_XIL_AXI4STREAM_DEST_WIDTH=1,C_XIL_AXI4STREAM_DATA_WIDTH=512,C_XIL_AXI4STREAM_ID_WIDTH=1,C_XIL_AXI4STREAM_HAS_ARESETN=1)::get_and_drive/GET_AND_DRIVE  Scope: axi4stream_vip_pkg.axi4stream_transaction::set_id  File: /home/linuxusr/tools/Vivado/2024.2/data/xilinx_vip/hdl/axi4stream_vip_pkg.sv Line: 495
Warning: [tx] (axi4stream_vip_pkg.axi4stream_transaction::set_dest) 635 ns : Attempted to send DEST (0xdeadbeef) which is wider than dest_width (         1). Truncating DEST to (0x1)
Time: 635001 ps  Iteration: 0  Process: /axi4stream_vip_pkg/axi4stream_mst_driver(C_XIL_AXI4STREAM_SIGNAL_SET=8'b01110011,C_XIL_AXI4STREAM_DEST_WIDTH=1,C_XIL_AXI4STREAM_DATA_WIDTH=512,C_XIL_AXI4STREAM_ID_WIDTH=1,C_XIL_AXI4STREAM_HAS_ARESETN=1)::get_and_drive/GET_AND_DRIVE  Scope: axi4stream_vip_pkg.axi4stream_transaction::set_dest  File: /home/linuxusr/tools/Vivado/2024.2/data/xilinx_vip/hdl/axi4stream_vip_pkg.sv Line: 528
Warning: [tx] (axi4stream_vip_pkg.axi4stream_transaction::set_id) 645 ns : Attempted to send ID (0x12345678) which is wider than id_width (         1). Truncating ID to (0x0)
Time: 645001 ps  Iteration: 0  Process: /axi4stream_vip_pkg/axi4stream_mst_driver(C_XIL_AXI4STREAM_SIGNAL_SET=8'b01110011,C_XIL_AXI4STREAM_DEST_WIDTH=1,C_XIL_AXI4STREAM_DATA_WIDTH=512,C_XIL_AXI4STREAM_ID_WIDTH=1,C_XIL_AXI4STREAM_HAS_ARESETN=1)::get_and_drive/GET_AND_DRIVE  Scope: axi4stream_vip_pkg.axi4stream_transaction::set_id  File: /home/linuxusr/tools/Vivado/2024.2/data/xilinx_vip/hdl/axi4stream_vip_pkg.sv Line: 495
Warning: [tx] (axi4stream_vip_pkg.axi4stream_transaction::set_dest) 645 ns : Attempted to send DEST (0xdeadbeef) which is wider than dest_width (         1). Truncating DEST to (0x1)
Time: 645001 ps  Iteration: 0  Process: /axi4stream_vip_pkg/axi4stream_mst_driver(C_XIL_AXI4STREAM_SIGNAL_SET=8'b01110011,C_XIL_AXI4STREAM_DEST_WIDTH=1,C_XIL_AXI4STREAM_DATA_WIDTH=512,C_XIL_AXI4STREAM_ID_WIDTH=1,C_XIL_AXI4STREAM_HAS_ARESETN=1)::get_and_drive/GET_AND_DRIVE  Scope: axi4stream_vip_pkg.axi4stream_transaction::set_dest  File: /home/linuxusr/tools/Vivado/2024.2/data/xilinx_vip/hdl/axi4stream_vip_pkg.sv Line: 528
Warning: [tx] (axi4stream_vip_pkg.axi4stream_transaction::set_id) 655 ns : Attempted to send ID (0x12345678) which is wider than id_width (         1). Truncating ID to (0x0)
Time: 655001 ps  Iteration: 0  Process: /axi4stream_vip_pkg/axi4stream_mst_driver(C_XIL_AXI4STREAM_SIGNAL_SET=8'b01110011,C_XIL_AXI4STREAM_DEST_WIDTH=1,C_XIL_AXI4STREAM_DATA_WIDTH=512,C_XIL_AXI4STREAM_ID_WIDTH=1,C_XIL_AXI4STREAM_HAS_ARESETN=1)::get_and_drive/GET_AND_DRIVE  Scope: axi4stream_vip_pkg.axi4stream_transaction::set_id  File: /home/linuxusr/tools/Vivado/2024.2/data/xilinx_vip/hdl/axi4stream_vip_pkg.sv Line: 495
Warning: [tx] (axi4stream_vip_pkg.axi4stream_transaction::set_dest) 655 ns : Attempted to send DEST (0xdeadbeef) which is wider than dest_width (         1). Truncating DEST to (0x1)
Time: 655001 ps  Iteration: 0  Process: /axi4stream_vip_pkg/axi4stream_mst_driver(C_XIL_AXI4STREAM_SIGNAL_SET=8'b01110011,C_XIL_AXI4STREAM_DEST_WIDTH=1,C_XIL_AXI4STREAM_DATA_WIDTH=512,C_XIL_AXI4STREAM_ID_WIDTH=1,C_XIL_AXI4STREAM_HAS_ARESETN=1)::get_and_drive/GET_AND_DRIVE  Scope: axi4stream_vip_pkg.axi4stream_transaction::set_dest  File: /home/linuxusr/tools/Vivado/2024.2/data/xilinx_vip/hdl/axi4stream_vip_pkg.sv Line: 528
[AXIS SEND] with continuous valid : all beats send 완료
[LITE READ]  addr=0x04 data=0x00000009
[LITE READ]  addr=0x04 data=0x00000009
[DUT_FSM] t=735 ns ns  STORE       (status=9)
[DUT_FSM] t=745 ns ns  WAIT_ITER2  (status=1)
[LITE READ]  addr=0x04 data=0x00000009
[LITE READ]  addr=0x04 data=0x00000001
>>> ITER1 완료,WAIT_ITER2 
[DUT_FSM] t=855 ns ns  ITER2       (status=2)
[LITE WRITE] addr=0x00 data=0x00000002 resp=0
Warning: [tx] (axi4stream_vip_pkg.axi4stream_transaction::set_id) 855 ns : Attempted to send ID (0x12345678) which is wider than id_width (         1). Truncating ID to (0x0)
Time: 855001 ps  Iteration: 0  Process: /axi4stream_vip_pkg/axi4stream_mst_driver(C_XIL_AXI4STREAM_SIGNAL_SET=8'b01110011,C_XIL_AXI4STREAM_DEST_WIDTH=1,C_XIL_AXI4STREAM_DATA_WIDTH=512,C_XIL_AXI4STREAM_ID_WIDTH=1,C_XIL_AXI4STREAM_HAS_ARESETN=1)::get_and_drive/GET_AND_DRIVE  Scope: axi4stream_vip_pkg.axi4stream_transaction::set_id  File: /home/linuxusr/tools/Vivado/2024.2/data/xilinx_vip/hdl/axi4stream_vip_pkg.sv Line: 495
Warning: [tx] (axi4stream_vip_pkg.axi4stream_transaction::set_dest) 855 ns : Attempted to send DEST (0xdeadbeef) which is wider than dest_width (         1). Truncating DEST to (0x1)
Time: 855001 ps  Iteration: 0  Process: /axi4stream_vip_pkg/axi4stream_mst_driver(C_XIL_AXI4STREAM_SIGNAL_SET=8'b01110011,C_XIL_AXI4STREAM_DEST_WIDTH=1,C_XIL_AXI4STREAM_DATA_WIDTH=512,C_XIL_AXI4STREAM_ID_WIDTH=1,C_XIL_AXI4STREAM_HAS_ARESETN=1)::get_and_drive/GET_AND_DRIVE  Scope: axi4stream_vip_pkg.axi4stream_transaction::set_dest  File: /home/linuxusr/tools/Vivado/2024.2/data/xilinx_vip/hdl/axi4stream_vip_pkg.sv Line: 528
Warning: [tx] (axi4stream_vip_pkg.axi4stream_transaction::set_id) 865 ns : Attempted to send ID (0x12345678) which is wider than id_width (         1). Truncating ID to (0x0)
Time: 865001 ps  Iteration: 0  Process: /axi4stream_vip_pkg/axi4stream_mst_driver(C_XIL_AXI4STREAM_SIGNAL_SET=8'b01110011,C_XIL_AXI4STREAM_DEST_WIDTH=1,C_XIL_AXI4STREAM_DATA_WIDTH=512,C_XIL_AXI4STREAM_ID_WIDTH=1,C_XIL_AXI4STREAM_HAS_ARESETN=1)::get_and_drive/GET_AND_DRIVE  Scope: axi4stream_vip_pkg.axi4stream_transaction::set_id  File: /home/linuxusr/tools/Vivado/2024.2/data/xilinx_vip/hdl/axi4stream_vip_pkg.sv Line: 495
Warning: [tx] (axi4stream_vip_pkg.axi4stream_transaction::set_dest) 865 ns : Attempted to send DEST (0xdeadbeef) which is wider than dest_width (         1). Truncating DEST to (0x1)
Time: 865001 ps  Iteration: 0  Process: /axi4stream_vip_pkg/axi4stream_mst_driver(C_XIL_AXI4STREAM_SIGNAL_SET=8'b01110011,C_XIL_AXI4STREAM_DEST_WIDTH=1,C_XIL_AXI4STREAM_DATA_WIDTH=512,C_XIL_AXI4STREAM_ID_WIDTH=1,C_XIL_AXI4STREAM_HAS_ARESETN=1)::get_and_drive/GET_AND_DRIVE  Scope: axi4stream_vip_pkg.axi4stream_transaction::set_dest  File: /home/linuxusr/tools/Vivado/2024.2/data/xilinx_vip/hdl/axi4stream_vip_pkg.sv Line: 528
[OUT] first row data[15:0] in 32row =0000 , tlast=0
Warning: [tx] (axi4stream_vip_pkg.axi4stream_transaction::set_id) 875 ns : Attempted to send ID (0x12345678) which is wider than id_width (         1). Truncating ID to (0x0)
Time: 875001 ps  Iteration: 0  Process: /axi4stream_vip_pkg/axi4stream_mst_driver(C_XIL_AXI4STREAM_SIGNAL_SET=8'b01110011,C_XIL_AXI4STREAM_DEST_WIDTH=1,C_XIL_AXI4STREAM_DATA_WIDTH=512,C_XIL_AXI4STREAM_ID_WIDTH=1,C_XIL_AXI4STREAM_HAS_ARESETN=1)::get_and_drive/GET_AND_DRIVE  Scope: axi4stream_vip_pkg.axi4stream_transaction::set_id  File: /home/linuxusr/tools/Vivado/2024.2/data/xilinx_vip/hdl/axi4stream_vip_pkg.sv Line: 495
Warning: [tx] (axi4stream_vip_pkg.axi4stream_transaction::set_dest) 875 ns : Attempted to send DEST (0xdeadbeef) which is wider than dest_width (         1). Truncating DEST to (0x1)
Time: 875001 ps  Iteration: 0  Process: /axi4stream_vip_pkg/axi4stream_mst_driver(C_XIL_AXI4STREAM_SIGNAL_SET=8'b01110011,C_XIL_AXI4STREAM_DEST_WIDTH=1,C_XIL_AXI4STREAM_DATA_WIDTH=512,C_XIL_AXI4STREAM_ID_WIDTH=1,C_XIL_AXI4STREAM_HAS_ARESETN=1)::get_and_drive/GET_AND_DRIVE  Scope: axi4stream_vip_pkg.axi4stream_transaction::set_dest  File: /home/linuxusr/tools/Vivado/2024.2/data/xilinx_vip/hdl/axi4stream_vip_pkg.sv Line: 528
Warning: [tx] (axi4stream_vip_pkg.axi4stream_transaction::set_id) 885 ns : Attempted to send ID (0x12345678) which is wider than id_width (         1). Truncating ID to (0x0)
Time: 885001 ps  Iteration: 0  Process: /axi4stream_vip_pkg/axi4stream_mst_driver(C_XIL_AXI4STREAM_SIGNAL_SET=8'b01110011,C_XIL_AXI4STREAM_DEST_WIDTH=1,C_XIL_AXI4STREAM_DATA_WIDTH=512,C_XIL_AXI4STREAM_ID_WIDTH=1,C_XIL_AXI4STREAM_HAS_ARESETN=1)::get_and_drive/GET_AND_DRIVE  Scope: axi4stream_vip_pkg.axi4stream_transaction::set_id  File: /home/linuxusr/tools/Vivado/2024.2/data/xilinx_vip/hdl/axi4stream_vip_pkg.sv Line: 495
Warning: [tx] (axi4stream_vip_pkg.axi4stream_transaction::set_dest) 885 ns : Attempted to send DEST (0xdeadbeef) which is wider than dest_width (         1). Truncating DEST to (0x1)
Time: 885001 ps  Iteration: 0  Process: /axi4stream_vip_pkg/axi4stream_mst_driver(C_XIL_AXI4STREAM_SIGNAL_SET=8'b01110011,C_XIL_AXI4STREAM_DEST_WIDTH=1,C_XIL_AXI4STREAM_DATA_WIDTH=512,C_XIL_AXI4STREAM_ID_WIDTH=1,C_XIL_AXI4STREAM_HAS_ARESETN=1)::get_and_drive/GET_AND_DRIVE  Scope: axi4stream_vip_pkg.axi4stream_transaction::set_dest  File: /home/linuxusr/tools/Vivado/2024.2/data/xilinx_vip/hdl/axi4stream_vip_pkg.sv Line: 528
Warning: [tx] (axi4stream_vip_pkg.axi4stream_transaction::set_id) 895 ns : Attempted to send ID (0x12345678) which is wider than id_width (         1). Truncating ID to (0x0)
Time: 895001 ps  Iteration: 0  Process: /axi4stream_vip_pkg/axi4stream_mst_driver(C_XIL_AXI4STREAM_SIGNAL_SET=8'b01110011,C_XIL_AXI4STREAM_DEST_WIDTH=1,C_XIL_AXI4STREAM_DATA_WIDTH=512,C_XIL_AXI4STREAM_ID_WIDTH=1,C_XIL_AXI4STREAM_HAS_ARESETN=1)::get_and_drive/GET_AND_DRIVE  Scope: axi4stream_vip_pkg.axi4stream_transaction::set_id  File: /home/linuxusr/tools/Vivado/2024.2/data/xilinx_vip/hdl/axi4stream_vip_pkg.sv Line: 495
Warning: [tx] (axi4stream_vip_pkg.axi4stream_transaction::set_dest) 895 ns : Attempted to send DEST (0xdeadbeef) which is wider than dest_width (         1). Truncating DEST to (0x1)
Time: 895001 ps  Iteration: 0  Process: /axi4stream_vip_pkg/axi4stream_mst_driver(C_XIL_AXI4STREAM_SIGNAL_SET=8'b01110011,C_XIL_AXI4STREAM_DEST_WIDTH=1,C_XIL_AXI4STREAM_DATA_WIDTH=512,C_XIL_AXI4STREAM_ID_WIDTH=1,C_XIL_AXI4STREAM_HAS_ARESETN=1)::get_and_drive/GET_AND_DRIVE  Scope: axi4stream_vip_pkg.axi4stream_transaction::set_dest  File: /home/linuxusr/tools/Vivado/2024.2/data/xilinx_vip/hdl/axi4stream_vip_pkg.sv Line: 528
[OUT] first row data[15:0] in 32row =0000 , tlast=0
Warning: [tx] (axi4stream_vip_pkg.axi4stream_transaction::set_id) 905 ns : Attempted to send ID (0x12345678) which is wider than id_width (         1). Truncating ID to (0x0)
Time: 905001 ps  Iteration: 0  Process: /axi4stream_vip_pkg/axi4stream_mst_driver(C_XIL_AXI4STREAM_SIGNAL_SET=8'b01110011,C_XIL_AXI4STREAM_DEST_WIDTH=1,C_XIL_AXI4STREAM_DATA_WIDTH=512,C_XIL_AXI4STREAM_ID_WIDTH=1,C_XIL_AXI4STREAM_HAS_ARESETN=1)::get_and_drive/GET_AND_DRIVE  Scope: axi4stream_vip_pkg.axi4stream_transaction::set_id  File: /home/linuxusr/tools/Vivado/2024.2/data/xilinx_vip/hdl/axi4stream_vip_pkg.sv Line: 495
Warning: [tx] (axi4stream_vip_pkg.axi4stream_transaction::set_dest) 905 ns : Attempted to send DEST (0xdeadbeef) which is wider than dest_width (         1). Truncating DEST to (0x1)
Time: 905001 ps  Iteration: 0  Process: /axi4stream_vip_pkg/axi4stream_mst_driver(C_XIL_AXI4STREAM_SIGNAL_SET=8'b01110011,C_XIL_AXI4STREAM_DEST_WIDTH=1,C_XIL_AXI4STREAM_DATA_WIDTH=512,C_XIL_AXI4STREAM_ID_WIDTH=1,C_XIL_AXI4STREAM_HAS_ARESETN=1)::get_and_drive/GET_AND_DRIVE  Scope: axi4stream_vip_pkg.axi4stream_transaction::set_dest  File: /home/linuxusr/tools/Vivado/2024.2/data/xilinx_vip/hdl/axi4stream_vip_pkg.sv Line: 528
Warning: [tx] (axi4stream_vip_pkg.axi4stream_transaction::set_id) 915 ns : Attempted to send ID (0x12345678) which is wider than id_width (         1). Truncating ID to (0x0)
Time: 915001 ps  Iteration: 0  Process: /axi4stream_vip_pkg/axi4stream_mst_driver(C_XIL_AXI4STREAM_SIGNAL_SET=8'b01110011,C_XIL_AXI4STREAM_DEST_WIDTH=1,C_XIL_AXI4STREAM_DATA_WIDTH=512,C_XIL_AXI4STREAM_ID_WIDTH=1,C_XIL_AXI4STREAM_HAS_ARESETN=1)::get_and_drive/GET_AND_DRIVE  Scope: axi4stream_vip_pkg.axi4stream_transaction::set_id  File: /home/linuxusr/tools/Vivado/2024.2/data/xilinx_vip/hdl/axi4stream_vip_pkg.sv Line: 495
Warning: [tx] (axi4stream_vip_pkg.axi4stream_transaction::set_dest) 915 ns : Attempted to send DEST (0xdeadbeef) which is wider than dest_width (         1). Truncating DEST to (0x1)
Time: 915001 ps  Iteration: 0  Process: /axi4stream_vip_pkg/axi4stream_mst_driver(C_XIL_AXI4STREAM_SIGNAL_SET=8'b01110011,C_XIL_AXI4STREAM_DEST_WIDTH=1,C_XIL_AXI4STREAM_DATA_WIDTH=512,C_XIL_AXI4STREAM_ID_WIDTH=1,C_XIL_AXI4STREAM_HAS_ARESETN=1)::get_and_drive/GET_AND_DRIVE  Scope: axi4stream_vip_pkg.axi4stream_transaction::set_dest  File: /home/linuxusr/tools/Vivado/2024.2/data/xilinx_vip/hdl/axi4stream_vip_pkg.sv Line: 528
Warning: [tx] (axi4stream_vip_pkg.axi4stream_transaction::set_id) 925 ns : Attempted to send ID (0x12345678) which is wider than id_width (         1). Truncating ID to (0x0)
